!C0603C620G5GACTU
!Temp@ 25°C, Bias@ 0V Shunt 
! KEMET S2P Model 
# HZ S DB R 50
1000 -2.070878E-06 -0.002240302 -88.16768 89.7336 -88.16768 89.7336 -2.070878E-06 -0.002240302  
1047.129 -1.553158E-06 -0.002342755 -87.76767 89.73356 -87.76767 89.73356 -1.553158E-06 -0.002342755  
1096.478 -1.553158E-06 -0.002452038 -87.36767 89.73352 -87.36767 89.73352 -1.553158E-06 -0.002452038  
1148.153 -1.553158E-06 -0.002568151 -86.96767 89.73346 -86.96767 89.73346 -1.553158E-06 -0.002568151  
1202.264 -1.553158E-06 -0.002691095 -86.56767 89.7334 -86.56767 89.7334 -1.553158E-06 -0.002691095  
1258.925 -2.588597E-06 -0.002814038 -86.16768 89.73333 -86.16768 89.73333 -2.588597E-06 -0.002814038  
1318.256 -2.588597E-06 -0.002950642 -85.76767 89.73325 -85.76767 89.73325 -2.588597E-06 -0.002950642  
1380.385 -2.070878E-06 -0.003087245 -85.36767 89.73315 -85.36767 89.73315 -2.070878E-06 -0.003087245  
1445.44 -2.070878E-06 -0.00323068 -84.96767 89.73306 -84.96767 89.73306 -2.070878E-06 -0.00323068  
1513.562 -2.070878E-06 -0.003387774 -84.56767 89.73296 -84.56767 89.73296 -2.070878E-06 -0.003387774  
1584.893 -2.588597E-06 -0.003544868 -84.16767 89.73283 -84.16767 89.73283 -2.588597E-06 -0.003544868  
1659.587 -2.588597E-06 -0.003715623 -83.76767 89.7327 -83.76767 89.7327 -2.588597E-06 -0.003715623  
1737.801 -2.070878E-06 -0.003886377 -83.36768 89.73257 -83.36768 89.73257 -2.070878E-06 -0.003886377  
1819.701 -3.106317E-06 -0.004070793 -82.96767 89.73242 -82.96767 89.73242 -3.106317E-06 -0.004070793  
1905.461 -3.106317E-06 -0.004262038 -82.56767 89.73227 -82.56767 89.73227 -3.106317E-06 -0.004262038  
1995.262 -3.106317E-06 -0.004466944 -82.16767 89.7321 -82.16767 89.7321 -3.106317E-06 -0.004466944  
2089.296 -3.624036E-06 -0.004671849 -81.76767 89.73193 -81.76767 89.73193 -3.624036E-06 -0.004671849  
2187.761 -3.106317E-06 -0.004897246 -81.36768 89.73173 -81.36768 89.73173 -3.106317E-06 -0.004897246  
2290.867 -3.624036E-06 -0.005122642 -80.96767 89.73154 -80.96767 89.73154 -3.624036E-06 -0.005122642  
2398.833 -4.141756E-06 -0.005368528 -80.56767 89.73132 -80.56767 89.73132 -4.141756E-06 -0.005368528  
2511.887 -4.141756E-06 -0.005621246 -80.16768 89.73109 -80.16768 89.73109 -4.141756E-06 -0.005621246  
2630.269 -4.141756E-06 -0.005887623 -79.76768 89.73086 -79.76768 89.73086 -4.141756E-06 -0.005887623  
2754.229 -4.659476E-06 -0.006160831 -79.36768 89.73061 -79.36768 89.73061 -4.659476E-06 -0.006160831  
2884.032 -4.659476E-06 -0.006454528 -78.96767 89.73034 -78.96767 89.73034 -4.659476E-06 -0.006454528  
3019.952 -4.141756E-06 -0.006755057 -78.56767 89.73006 -78.56767 89.73006 -4.141756E-06 -0.006755057  
3162.278 -5.177195E-06 -0.007076076 -78.16768 89.72976 -78.16768 89.72976 -5.177195E-06 -0.007076076  
3311.311 -5.177195E-06 -0.007410755 -77.76768 89.72944 -77.76768 89.72944 -5.177195E-06 -0.007410755  
3467.368 -5.694915E-06 -0.007759094 -77.36768 89.72911 -77.36768 89.72911 -5.694915E-06 -0.007759094  
3630.78 -6.212635E-06 -0.008121095 -76.96768 89.72877 -76.96768 89.72877 -6.212635E-06 -0.008121095  
3801.893 -6.212635E-06 -0.008503585 -76.56768 89.7284 -76.56768 89.7284 -6.212635E-06 -0.008503585  
3981.071 -5.694915E-06 -0.008906567 -76.16768 89.72803 -76.16768 89.72803 -5.694915E-06 -0.008906567  
4168.693 -6.212635E-06 -0.009330038 -75.76768 89.72761 -75.76768 89.72761 -6.212635E-06 -0.009330038  
4365.159 -6.730354E-06 -0.00976717 -75.36768 89.72719 -75.36768 89.72719 -6.730354E-06 -0.00976717  
4570.883 -6.730354E-06 -0.01022479 -74.96767 89.72675 -74.96767 89.72675 -6.730354E-06 -0.01022479  
4786.302 -7.765794E-06 -0.01070974 -74.56767 89.72628 -74.56767 89.72628 -7.765794E-06 -0.01070974  
5011.873 -8.283514E-06 -0.01121517 -74.16768 89.72578 -74.16768 89.72578 -8.283514E-06 -0.01121517  
5248.075 -8.801234E-06 -0.0117411 -73.76768 89.72527 -73.76768 89.72527 -8.801234E-06 -0.0117411  
5495.409 -8.283514E-06 -0.01229434 -73.36768 89.72472 -73.36768 89.72472 -8.283514E-06 -0.01229434  
5754.399 -9.318954E-06 -0.01287491 -72.96768 89.72416 -72.96768 89.72416 -9.318954E-06 -0.01287491  
6025.596 -8.801234E-06 -0.01348279 -72.56768 89.72356 -72.56768 89.72356 -8.801234E-06 -0.01348279  
6309.573 -9.836675E-06 -0.014118 -72.16768 89.72293 -72.16768 89.72293 -9.836675E-06 -0.014118  
6606.934 -1.087211E-05 -0.01478053 -71.76768 89.72228 -71.76768 89.72228 -1.087211E-05 -0.01478053  
6918.308 -1.087211E-05 -0.01547721 -71.36768 89.72159 -71.36768 89.72159 -1.087211E-05 -0.01547721  
7244.358 -1.190755E-05 -0.01620804 -70.96768 89.72087 -70.96768 89.72087 -1.190755E-05 -0.01620804  
7585.778 -1.190755E-05 -0.01697302 -70.56768 89.72011 -70.56768 89.72011 -1.190755E-05 -0.01697302  
7943.284 -1.242527E-05 -0.01777215 -70.16768 89.71931 -70.16768 89.71931 -1.242527E-05 -0.01777215  
8317.64 -1.294299E-05 -0.01861227 -69.76768 89.71848 -69.76768 89.71848 -1.294299E-05 -0.01861227  
8709.637 -1.346071E-05 -0.01948653 -69.36768 89.71762 -69.36768 89.71762 -1.346071E-05 -0.01948653  
9120.109 -1.449615E-05 -0.02040178 -68.96768 89.71671 -68.96768 89.71671 -1.449615E-05 -0.02040178  
9549.927 -1.501387E-05 -0.02136483 -68.56769 89.71576 -68.56769 89.71576 -1.501387E-05 -0.02136483  
10000 -1.656704E-05 -0.0223757 -68.16769 89.71474 -68.16769 89.71474 -1.656704E-05 -0.0223757  
10471.29 -1.708476E-05 -0.02342755 -67.76768 89.7137 -67.76768 89.7137 -1.708476E-05 -0.02342755  
10964.78 -1.708476E-05 -0.02453404 -67.36769 89.7126 -67.36769 89.7126 -1.708476E-05 -0.02453404  
11481.54 -1.915564E-05 -0.02568834 -66.96769 89.71144 -66.96769 89.71144 -1.915564E-05 -0.02568834  
12022.64 -1.915564E-05 -0.02689728 -66.5677 89.71024 -66.5677 89.71024 -1.915564E-05 -0.02689728  
12589.25 -2.07088E-05 -0.0281677 -66.16769 89.70898 -66.16769 89.70898 -2.07088E-05 -0.0281677  
13182.56 -2.174424E-05 -0.02949276 -65.76769 89.70765 -65.76769 89.70765 -2.174424E-05 -0.02949276  
13803.84 -2.277968E-05 -0.03088611 -65.36769 89.70626 -65.36769 89.70626 -2.277968E-05 -0.03088611  
14454.39 -2.32974E-05 -0.03234094 -64.9677 89.7048 -64.9677 89.7048 -2.32974E-05 -0.03234094  
15135.61 -2.485056E-05 -0.03386408 -64.5677 89.70329 -64.5677 89.70329 -2.485056E-05 -0.03386408  
15848.92 -2.692145E-05 -0.03546234 -64.1677 89.70169 -64.1677 89.70169 -2.692145E-05 -0.03546234  
16595.86 -2.743917E-05 -0.03712891 -63.7677 89.70003 -63.7677 89.70003 -2.743917E-05 -0.03712891  
17378 -2.899233E-05 -0.03887744 -63.36771 89.69828 -63.36771 89.69828 -2.899233E-05 -0.03887744  
18197.02 -3.106322E-05 -0.04071476 -62.9677 89.69644 -62.9677 89.69644 -3.106322E-05 -0.04071476  
19054.62 -3.209866E-05 -0.04263404 -62.5677 89.69452 -62.5677 89.69452 -3.209866E-05 -0.04263404  
19952.63 -3.365182E-05 -0.04464212 -62.1677 89.69251 -62.1677 89.69251 -3.365182E-05 -0.04464212  
20892.97 -3.572271E-05 -0.04674581 -61.7677 89.69041 -61.7677 89.69041 -3.572271E-05 -0.04674581  
21877.62 -3.727587E-05 -0.04894513 -61.36771 89.68821 -61.36771 89.68821 -3.727587E-05 -0.04894513  
22908.68 -3.986448E-05 -0.05125374 -60.96771 89.68589 -60.96771 89.68589 -3.986448E-05 -0.05125374  
23988.34 -4.089993E-05 -0.05367162 -60.56771 89.68348 -60.56771 89.68348 -4.089993E-05 -0.05367162  
25118.87 -4.297082E-05 -0.05619879 -60.16771 89.68095 -60.16771 89.68095 -4.297082E-05 -0.05619879  
26302.68 -4.555942E-05 -0.05884891 -59.76772 89.67829 -59.76772 89.67829 -4.555942E-05 -0.05884891  
27542.29 -4.866576E-05 -0.06162196 -59.36772 89.67551 -59.36772 89.67551 -4.866576E-05 -0.06162196  
28840.32 -5.073664E-05 -0.0645248 -58.96772 89.67261 -58.96772 89.67261 -5.073664E-05 -0.0645248  
30199.52 -5.332526E-05 -0.06756423 -58.56773 89.66957 -58.56773 89.66957 -5.332526E-05 -0.06756423  
31622.78 -5.539615E-05 -0.07075393 -58.16773 89.66638 -58.16773 89.66638 -5.539615E-05 -0.07075393  
33113.11 -5.902021E-05 -0.07408706 -57.76773 89.66304 -57.76773 89.66304 -5.902021E-05 -0.07408706  
34673.68 -6.264426E-05 -0.07757729 -57.36774 89.65954 -57.36774 89.65954 -6.264426E-05 -0.07757729  
36307.8 -6.523288E-05 -0.08123144 -56.96774 89.65589 -56.96774 89.65589 -6.523288E-05 -0.08123144  
38018.93 -6.833923E-05 -0.08506317 -56.56774 89.65205 -56.56774 89.65205 -6.833923E-05 -0.08506317  
39810.71 -7.248101E-05 -0.0890725 -56.16775 89.64803 -56.16775 89.64803 -7.248101E-05 -0.0890725  
41686.93 -7.66228E-05 -0.09326623 -55.76775 89.64382 -55.76775 89.64382 -7.66228E-05 -0.09326623  
43651.57 -8.024687E-05 -0.09766487 -55.36776 89.63943 -55.36776 89.63943 -8.024687E-05 -0.09766487  
45708.8 -8.438867E-05 -0.1022684 -54.96776 89.63482 -54.96776 89.63482 -8.438867E-05 -0.1022684  
47862.99 -9.008364E-05 -0.1070837 -54.56776 89.63 -54.56776 89.63 -9.008364E-05 -0.1070837  
50118.7 -9.474316E-05 -0.1121312 -54.16777 89.62494 -54.16777 89.62494 -9.474316E-05 -0.1121312  
52480.72 -9.992042E-05 -0.1174178 -53.76778 89.61964 -53.76778 89.61964 -9.992042E-05 -0.1174178  
54954.06 -0.0001050977 -0.1229502 -53.36778 89.6141 -53.36778 89.6141 -0.0001050977 -0.1229502  
57544.02 -0.0001107927 -0.1287422 -52.96778 89.6083 -52.96778 89.6083 -0.0001107927 -0.1287422  
60255.99 -0.0001180408 -0.1348143 -52.56778 89.60222 -52.56778 89.60222 -0.0001180408 -0.1348143  
63095.76 -0.0001247713 -0.1411663 -52.16779 89.59585 -52.16779 89.59585 -0.0001247713 -0.1411663  
66069.37 -0.0001315017 -0.147819 -51.7678 89.58918 -51.7678 89.58918 -0.0001315017 -0.147819  
69183.13 -0.0001397853 -0.1547858 -51.36781 89.58221 -51.36781 89.58221 -0.0001397853 -0.1547858  
72443.62 -0.0001475513 -0.1620804 -50.96782 89.57491 -50.96782 89.57491 -0.0001475513 -0.1620804  
75857.78 -0.0001563526 -0.1697165 -50.56783 89.56725 -50.56783 89.56725 -0.0001563526 -0.1697165  
79432.84 -0.0001651541 -0.1777147 -50.16783 89.55924 -50.16783 89.55924 -0.0001651541 -0.1777147  
83176.39 -0.0001755086 -0.1860885 -49.76785 89.55085 -49.76785 89.55085 -0.0001755086 -0.1860885  
87096.37 -0.0001858632 -0.1948585 -49.36786 89.54206 -49.36786 89.54206 -0.0001858632 -0.1948585  
91201.09 -0.0001972533 -0.2040451 -48.96786 89.53285 -48.96786 89.53285 -0.0001972533 -0.2040451  
95499.27 -0.0002086434 -0.213662 -48.56788 89.52322 -48.56788 89.52322 -0.0002086434 -0.213662  
100000 -0.0002226222 -0.2237297 -48.16789 89.51314 -48.16789 89.51314 -0.0002226222 -0.2237297  
104712.9 -0.0002355655 -0.2342755 -47.76791 89.50258 -47.76791 89.50258 -0.0002355655 -0.2342755  
109647.8 -0.0002505798 -0.2453131 -47.36792 89.49152 -47.36792 89.49152 -0.0002505798 -0.2453131  
114815.3 -0.0002661118 -0.2568766 -46.96793 89.47993 -46.96793 89.47993 -0.0002661118 -0.2568766  
120226.4 -0.0002831971 -0.2689797 -46.56796 89.4678 -46.56796 89.4678 -0.0002831971 -0.2689797  
125892.5 -0.0003008002 -0.2816565 -46.16798 89.45511 -46.16798 89.45511 -0.0003008002 -0.2816565  
131825.6 -0.0003204742 -0.2949275 -45.76799 89.44181 -45.76799 89.44181 -0.0003204742 -0.2949275  
138038.4 -0.0003417015 -0.308827 -45.36802 89.42789 -45.36802 89.42789 -0.0003417015 -0.308827  
144543.9 -0.0003634466 -0.3233821 -44.96804 89.4133 -44.96804 89.4133 -0.0003634466 -0.3233821  
151356.1 -0.0003877805 -0.3386271 -44.56806 89.39803 -44.56806 89.39803 -0.0003877805 -0.3386271  
158489.3 -0.0004131499 -0.3545824 -44.16809 89.38204 -44.16809 89.38204 -0.0004131499 -0.3545824  
165958.6 -0.0004405903 -0.371289 -43.76812 89.3653 -43.76812 89.3653 -0.0004405903 -0.371289  
173780 -0.0004711374 -0.388788 -43.36815 89.34777 -43.36815 89.34777 -0.0004711374 -0.388788  
181970.2 -0.0005027201 -0.4071134 -42.96817 89.32942 -42.96817 89.32942 -0.0005027201 -0.4071134  
190546.2 -0.0005384448 -0.4262994 -42.56821 89.31019 -42.56821 89.31019 -0.0005384448 -0.4262994  
199526.3 -0.0005752053 -0.446387 -42.16824 89.29007 -42.16824 89.29007 -0.0005752053 -0.446387  
208929.7 -0.0006150723 -0.467424 -41.76828 89.26899 -41.76828 89.26899 -0.0006150723 -0.467424  
218776.2 -0.000658564 -0.4894513 -41.36833 89.24692 -41.36833 89.24692 -0.000658564 -0.4894513  
229086.8 -0.0007056801 -0.5125101 -40.96838 89.22382 -40.96838 89.22382 -0.0007056801 -0.5125101  
239883.4 -0.0007553854 -0.5366616 -40.56842 89.19962 -40.56842 89.19962 -0.0007553854 -0.5366616  
251188.7 -0.0008097509 -0.5619538 -40.16848 89.17429 -40.16848 89.17429 -0.0008097509 -0.5619538  
263026.8 -0.0008692943 -0.5884345 -39.76854 89.14775 -39.76854 89.14775 -0.0008692943 -0.5884345  
275422.9 -0.0009329804 -0.616165 -39.3686 89.11996 -39.3686 89.11996 -0.0009329804 -0.616165  
288403.2 -0.001001327 -0.6452001 -38.96867 89.09087 -38.96867 89.09087 -0.001001327 -0.6452001  
301995.2 -0.001075887 -0.6756013 -38.56874 89.06042 -38.56874 89.06042 -0.001075887 -0.6756013  
316227.8 -0.001156144 -0.7074368 -38.16883 89.02852 -38.16883 89.02852 -0.001156144 -0.7074368  
331131.1 -0.001243133 -0.740775 -37.76891 88.99512 -37.76891 88.99512 -0.001243133 -0.740775  
346736.8 -0.00133789 -0.7756773 -37.36901 88.96015 -37.36901 88.96015 -0.00133789 -0.7756773  
363078 -0.001440933 -0.8122256 -36.96911 88.92353 -36.96911 88.92353 -0.001440933 -0.8122256  
380189.3 -0.001551226 -0.8504951 -36.56922 88.88519 -36.56922 88.88519 -0.001551226 -0.8504951  
398107.1 -0.001671877 -0.8905678 -36.16934 88.84504 -36.16934 88.84504 -0.001671877 -0.8905678  
416869.3 -0.001802886 -0.9325325 -35.76947 88.80299 -35.76947 88.80299 -0.001802886 -0.9325325  
436515.7 -0.001944772 -0.9764711 -35.36962 88.75898 -35.36962 88.75898 -0.001944772 -0.9764711  
457088 -0.002099088 -1.022473 -34.96977 88.71289 -34.96977 88.71289 -0.002099088 -1.022473  
478629.9 -0.002266353 -1.070646 -34.56994 88.66463 -34.56994 88.66463 -0.002266353 -1.070646  
501187 -0.002448122 -1.121087 -34.17012 88.61409 -34.17012 88.61409 -0.002448122 -1.121087  
524807.2 -0.002645949 -1.173905 -33.77032 88.56117 -33.77032 88.56117 -0.002645949 -1.173905  
549540.6 -0.00286087 -1.229209 -33.37053 88.50576 -33.37053 88.50576 -0.00286087 -1.229209  
575440.3 -0.003094442 -1.287115 -32.97076 88.44774 -32.97076 88.44774 -0.003094442 -1.287115  
602559.9 -0.003349255 -1.347747 -32.57101 88.38699 -32.57101 88.38699 -0.003349255 -1.347747  
630957.6 -0.003626346 -1.411226 -32.17129 88.32339 -32.17129 88.32339 -0.003626346 -1.411226  
660693.7 -0.003927789 -1.477698 -31.77159 88.2568 -31.77159 88.2568 -0.003927789 -1.477698  
691831.2 -0.004256178 -1.547304 -31.37192 88.18706 -31.37192 88.18706 -0.004256178 -1.547304  
724436.2 -0.004612551 -1.620175 -30.97227 88.11404 -30.97227 88.11404 -0.004612551 -1.620175  
758577.8 -0.005002092 -1.696476 -30.57267 88.0376 -30.57267 88.0376 -0.005002092 -1.696476  
794328.4 -0.005426876 -1.776368 -30.17309 87.95756 -30.17309 87.95756 -0.005426876 -1.776368  
831763.9 -0.005888464 -1.860018 -29.77355 87.87375 -29.77355 87.87375 -0.005888464 -1.860018  
870963.7 -0.006392562 -1.947594 -29.37405 87.786 -29.37405 87.786 -0.006392562 -1.947594  
912010.9 -0.006942284 -2.039289 -28.9746 87.69414 -28.9746 87.69414 -0.006942284 -2.039289  
954992.6 -0.007541785 -2.135295 -28.5752 87.59795 -28.5752 87.59795 -0.007541785 -2.135295  
1000000 -0.008194703 -2.235815 -28.17585 87.49724 -28.17585 87.49724 -0.008194703 -2.235815  
1047129 -0.008906749 -2.340815 -27.77743 87.39206 -27.77743 87.39206 -0.008906749 -2.340815  
1096478 -0.009683124 -2.45074 -27.37907 87.28195 -27.37907 87.28195 -0.009683124 -2.45074  
1148154 -0.01053006 -2.565808 -26.98078 87.16669 -26.98078 87.16669 -0.01053006 -2.565808  
1202264 -0.01145381 -2.686259 -26.58257 87.04604 -26.58257 87.04604 -0.01145381 -2.686259  
1258925 -0.01246319 -2.812358 -26.18445 86.91972 -26.18445 86.91972 -0.01246319 -2.812358  
1318256 -0.01356448 -2.944344 -25.78641 86.78751 -25.78641 86.78751 -0.01356448 -2.944344  
1380384 -0.01476755 -3.082499 -25.38848 86.64912 -25.38848 86.64912 -0.01476755 -3.082499  
1445439 -0.01608126 -3.227114 -24.99066 86.50426 -24.99066 86.50426 -0.01608126 -3.227114  
1513561 -0.01751553 -3.378485 -24.59296 86.35262 -24.59296 86.35262 -0.01751553 -3.378485  
1584893 -0.01908234 -3.536911 -24.19539 86.19392 -24.19539 86.19392 -0.01908234 -3.536911  
1659586 -0.02079422 -3.702728 -23.79797 86.02781 -23.79797 86.02781 -0.02079422 -3.702728  
1737800 -0.02266423 -3.876269 -23.4007 85.85396 -23.4007 85.85396 -0.02266423 -3.876269  
1819702 -0.02470754 -4.057897 -23.0036 85.67201 -23.0036 85.67201 -0.02470754 -4.057897  
1905462 -0.02694036 -4.247968 -22.60669 85.48161 -22.60669 85.48161 -0.02694036 -4.247968  
1995263 -0.02937947 -4.446869 -22.21 85.28235 -22.21 85.28235 -0.02937947 -4.446869  
2089297 -0.03204582 -4.654999 -21.81352 85.07384 -21.81352 85.07384 -0.03204582 -4.654999  
2187763 -0.0349604 -4.872773 -21.4173 84.85568 -21.4173 84.85568 -0.0349604 -4.872773  
2290868 -0.03814429 -5.100635 -21.02135 84.6274 -21.02135 84.6274 -0.03814429 -5.100635  
2398834 -0.04162533 -5.339029 -20.62569 84.38858 -20.62569 84.38858 -0.04162533 -5.339029  
2511887 -0.04542992 -5.58842 -20.23035 84.13873 -20.23035 84.13873 -0.04542992 -5.58842  
2630269 -0.04958866 -5.849298 -19.83537 83.87737 -19.83537 83.87737 -0.04958866 -5.849298  
2754229 -0.05413333 -6.122178 -19.44077 83.604 -19.44077 83.604 -0.05413333 -6.122178  
2884032 -0.05910103 -6.407571 -19.0466 83.31808 -19.0466 83.31808 -0.05910103 -6.407571  
3019952 -0.06453107 -6.706029 -18.65288 83.01907 -18.65288 83.01907 -0.06453107 -6.706029  
3162278 -0.07046711 -7.018115 -18.25967 82.70641 -18.25967 82.70641 -0.07046711 -7.018115  
3311311 -0.07695251 -7.344413 -17.86701 82.3795 -17.86701 82.3795 -0.07695251 -7.344413  
3467368 -0.08404023 -7.685513 -17.47495 82.03777 -17.47495 82.03777 -0.08404023 -7.685513  
3630780 -0.09178565 -8.042049 -17.08355 81.68057 -17.08355 81.68057 -0.09178565 -8.042049  
3801893 -0.1002497 -8.414663 -16.69286 81.30725 -16.69286 81.30725 -0.1002497 -8.414663  
3981071 -0.1094964 -8.803998 -16.30296 80.91719 -16.30296 80.91719 -0.1094964 -8.803998  
4168693 -0.1195974 -9.210742 -15.9139 80.50967 -15.9139 80.50967 -0.1195974 -9.210742  
4365157 -0.1306299 -9.635573 -15.52578 80.08403 -15.52578 80.08403 -0.1306299 -9.635573  
4570881 -0.1426789 -10.07921 -15.13867 79.63956 -15.13867 79.63956 -0.1426789 -10.07921  
4786299 -0.1558335 -10.54236 -14.75266 79.17551 -14.75266 79.17551 -0.1558335 -10.54236  
5011870 -0.1701929 -11.02575 -14.36785 78.69119 -14.36785 78.69119 -0.1701929 -11.02575  
5248072 -0.1858653 -11.53014 -13.98436 78.18582 -13.98436 78.18582 -0.1858653 -11.53014  
5495406 -0.2029646 -12.05626 -13.60228 77.65869 -13.60228 77.65869 -0.2029646 -12.05626  
5754403 -0.2216148 -12.60488 -13.22175 77.10899 -13.22175 77.10899 -0.2216148 -12.60488  
6025599 -0.241951 -13.1767 -12.84291 76.53604 -12.84291 76.53604 -0.241951 -13.1767  
6309576 -0.2641167 -13.77252 -12.46589 75.93906 -12.46589 75.93906 -0.2641167 -13.77252  
6606937 -0.2882667 -14.39302 -12.09084 75.31731 -12.09084 75.31731 -0.2882667 -14.39302  
6918312 -0.3145688 -15.03896 -11.71795 74.67007 -11.71795 74.67007 -0.3145688 -15.03896  
7244362 -0.3431991 -15.71103 -11.34737 73.99667 -11.34737 73.99667 -0.3431991 -15.71103  
7585778 -0.374349 -16.40986 -10.97932 73.2964 -10.97932 73.2964 -0.374349 -16.40986  
7943284 -0.4082202 -17.13612 -10.61397 72.56866 -10.61397 72.56866 -0.4082202 -17.13612  
8317639 -0.4450272 -17.89038 -10.25155 71.81283 -10.25155 71.81283 -0.4450272 -17.89038  
8709637 -0.4849997 -18.67318 -9.892283 71.0284 -9.892283 71.0284 -0.4849997 -18.67318  
9120109 -0.528376 -19.48496 -9.536415 70.2149 -9.536415 70.2149 -0.528376 -19.48496  
9549926 -0.5754119 -20.32615 -9.184193 69.37191 -9.184193 69.37191 -0.5754119 -20.32615  
1E+07 -0.626371 -21.19703 -8.835879 68.49915 -8.835879 68.49915 -0.626371 -21.19703  
1.047129E+07 -0.6815303 -22.09781 -8.491756 67.59639 -8.491756 67.59639 -0.6815303 -22.09781  
1.096478E+07 -0.7411808 -23.0286 -8.152107 66.66354 -8.152107 66.66354 -0.7411808 -23.0286  
