!Murata Part Number: GCM1555C1H151JA16
!These Parameters are Measured in Series Mode Connection
!       o--ll--o
!Port1            Port2
!       o------o
!Operation Temp=25[degC], DC Bias Voltage=0[V]
!Freq. Start=100[MHz] Stop=8.5[GHz], 401[Steps]
!Data Generated on Jan 10, 2017
# Hz S RI R 50
!Freq.(Hz) S11(Real) S11(Imag) S21(Real) S21(Imag) S12(Real) S12(Imag) S22(Real) S22(Imag)
1.0E8 0.011499580681068983 -0.10241494048708583 0.9885004193189312 0.10241494048708583 0.9885004193189312 0.10241494048708583 0.011499580681068983 -0.10241494048708583
1.21E8 0.008014187638325114 -0.08402476024508478 0.9919858123616747 0.08402476024508478 0.9919858123616747 0.08402476024508478 0.008014187638325114 -0.08402476024508478
1.42E8 0.005952032219793678 -0.07081901036084387 0.9940479677802064 0.07081901036084387 0.9940479677802064 0.07081901036084387 0.005952032219793678 -0.07081901036084387
1.63E8 0.004636239545515137 -0.060838134983206074 0.9953637604544848 0.060838134983206074 0.9953637604544848 0.060838134983206074 0.004636239545515137 -0.060838134983206074
1.84E8 0.003749269213888102 -0.0529964599331231 0.9962507307861117 0.0529964599331231 0.9962507307861117 0.0529964599331231 0.003749269213888102 -0.0529964599331231
2.05E8 0.0031262655231137273 -0.0466452779246444 0.9968737344768864 0.0466452779246444 0.9968737344768864 0.0466452779246444 0.0031262655231137273 -0.0466452779246444
2.26E8 0.002674771431403263 -0.04137359466971268 0.9973252285685967 0.04137359466971268 0.9973252285685967 0.04137359466971268 0.002674771431403263 -0.04137359466971268
2.47E8 0.002339679201567611 -0.03690857694338414 0.9976603207984326 0.03690857694338414 0.9976603207984326 0.03690857694338414 0.002339679201567611 -0.03690857694338414
2.68E8 0.002086483346329565 -0.03306208115430997 0.9979135166536703 0.03306208115430997 0.9979135166536703 0.03306208115430997 0.002086483346329565 -0.03306208115430997
2.89E8 0.0018926799504340973 -0.029700196255633273 0.9981073200495658 0.029700196255633273 0.9981073200495658 0.029700196255633273 0.0018926799504340973 -0.029700196255633273
3.1E8 0.0017430809508052316 -0.02672503252027882 0.9982569190491948 0.02672503252027882 0.9982569190491948 0.02672503252027882 0.0017430809508052316 -0.02672503252027882
3.31E8 0.001627132340439188 -0.024063378913550135 0.9983728676595608 0.024063378913550135 0.9983728676595608 0.024063378913550135 0.001627132340439188 -0.024063378913550135
3.52E8 0.0015373137704316818 -0.021659388419378832 0.9984626862295685 0.021659388419378832 0.9984626862295685 0.021659388419378832 0.0015373137704316818 -0.021659388419378832
3.73E8 0.0014681485514913537 -0.019469717256857998 0.9985318514485086 0.019469717256857998 0.9985318514485086 0.019469717256857998 0.0014681485514913537 -0.019469717256857998
3.94E8 0.0014155718064881877 -0.017460209200353703 0.998584428193512 0.017460209200353703 0.998584428193512 0.017460209200353703 0.0014155718064881877 -0.017460209200353703
4.15E8 0.0013765159811663138 -0.015603581257134319 0.9986234840188338 0.015603581257134319 0.9986234840188338 0.015603581257134319 0.0013765159811663138 -0.015603581257134319
4.36E8 0.0013486322431942189 -0.013877775028100926 0.9986513677568059 0.013877775028100926 0.9986513677568059 0.013877775028100926 0.0013486322431942189 -0.013877775028100926
4.57E8 0.001330099105374072 -0.012264760715070868 0.998669900894626 0.012264760715070868 0.998669900894626 0.012264760715070868 0.001330099105374072 -0.012264760715070868
4.78E8 0.0013194883731614362 -0.010749655198466353 0.9986805116268387 0.010749655198466353 0.9986805116268387 0.010749655198466353 0.0013194883731614362 -0.010749655198466353
4.99E8 0.0013156695766966629 -0.009320062032071785 0.9986843304233033 0.009320062032071785 0.9986843304233033 0.009320062032071785 0.0013156695766966629 -0.009320062032071785
5.2E8 0.0013177407441968066 -0.007965570841042166 0.9986822592558033 0.007965570841042166 0.9986822592558033 0.007965570841042166 0.0013177407441968066 -0.007965570841042166
5.41E8 0.0013249775276598901 -0.006677372944299661 0.9986750224723401 0.006677372944299661 0.9986750224723401 0.006677372944299661 0.0013249775276598901 -0.006677372944299661
5.62E8 0.00133679532591819 -0.005447962883760254 0.9986632046740819 0.005447962883760254 0.9986632046740819 0.005447962883760254 0.00133679532591819 -0.005447962883760254
5.83E8 0.001352720754084971 -0.004270904251434681 0.9986472792459149 0.004270904251434681 0.9986472792459149 0.004270904251434681 0.001352720754084971 -0.004270904251434681
6.04E8 0.0013723699311914061 -0.0031406441989503837 0.9986276300688088 0.0031406441989503837 0.9986276300688088 0.0031406441989503837 0.0013723699311914061 -0.0031406441989503837
6.25E8 0.001395431810230422 -0.002052365201100382 0.9986045681897695 0.002052365201100382 0.9986045681897695 0.002052365201100382 0.001395431810230422 -0.002052365201100382
6.46E8 0.0014216552870963551 -0.0010018656107460195 0.9985783447129035 0.0010018656107460195 0.9985783447129035 0.0010018656107460195 0.0014216552870963551 -0.0010018656107460195
6.67E8 0.001450839178917299 1.4537329947243265E-5 0.9985491608210827 -1.4537329947243265E-5 0.9985491608210827 -1.4537329947243265E-5 0.001450839178917299 1.4537329947243265E-5
6.88E8 0.0014828244104330896 0.0010000868123094726 0.9985171755895668 -0.0010000868123094726 0.9985171755895668 -0.0010000868123094726 0.0014828244104330896 0.0010000868123094726
7.09E8 0.0015174879234751504 0.001957651774453177 0.9984825120765247 -0.001957651774453177 0.9984825120765247 -0.001957651774453177 0.0015174879234751504 0.001957651774453177
7.3E8 0.0015547379517835377 0.002889781020368066 0.9984452620482165 -0.002889781020368066 0.9984452620482165 -0.002889781020368066 0.0015547379517835377 0.002889781020368066
7.51E8 0.001594510396455796 0.0037987483299919246 0.9984054896035442 -0.0037987483299919246 0.9984054896035442 -0.0037987483299919246 0.001594510396455796 0.0037987483299919246
7.72E8 0.0016367661065357186 0.004686590268817382 0.9983632338934644 -0.004686590268817382 0.9983632338934644 -0.004686590268817382 0.0016367661065357186 0.004686590268817382
7.93E8 0.0016814889217089974 0.0055551380417271775 0.9983185110782908 -0.0055551380417271775 0.9983185110782908 -0.0055551380417271775 0.0016814889217089974 0.0055551380417271775
8.14E8 0.0017286843747476863 0.006406044455300607 0.9982713156252525 -0.006406044455300607 0.9982713156252525 -0.006406044455300607 0.0017286843747476863 0.006406044455300607
8.35E8 0.0017783789837803687 0.007240806834470041 0.9982216210162195 -0.007240806834470041 0.9982216210162195 -0.007240806834470041 0.0017783789837803687 0.007240806834470041
8.56E8 0.0018306200912360379 0.008060786567402908 0.998169379908764 -0.008060786567402908 0.998169379908764 -0.008060786567402908 0.0018306200912360379 0.008060786567402908
8.77E8 0.0018854762293305624 0.00886722581505943 0.9981145237706692 -0.00886722581505943 0.9981145237706692 -0.00886722581505943 0.0018854762293305624 0.00886722581505943
8.98E8 0.001943038012689238 0.009661261810012573 0.9980569619873108 -0.009661261810012573 0.9980569619873108 -0.009661261810012573 0.001943038012689238 0.009661261810012573
9.19E8 0.002003419578251225 0.01044393907569974 0.9979965804217489 -0.01044393907569974 0.9979965804217489 -0.01044393907569974 0.002003419578251225 0.01044393907569974
9.4E8 0.002066760611849767 0.011216219816446348 0.9979332393881502 -0.011216219816446348 0.9979332393881502 -0.011216219816446348 0.002066760611849767 0.011216219816446348
9.61E8 0.0021332290204394097 0.01197899265522947 0.9978667709795607 -0.01197899265522947 0.9978667709795607 -0.01197899265522947 0.0021332290204394097 0.01197899265522947
9.82E8 0.0022030243292106753 0.01273307982538398 0.9977969756707893 -0.01273307982538398 0.9977969756707893 -0.01273307982538398 0.0022030243292106753 0.01273307982538398
1.003E9 0.002276381903771406 0.013479242849291428 0.9977236180962287 -0.013479242849291428 0.9977236180962287 -0.013479242849291428 0.002276381903771406 0.013479242849291428
1.024E9 0.0023535781185431807 0.014218186655929905 0.9976464218814567 -0.014218186655929905 0.9976464218814567 -0.014218186655929905 0.0023535781185431807 0.014218186655929905
1.045E9 0.0024349366118504028 0.014950561993304492 0.9975650633881495 -0.014950561993304492 0.9975650633881495 -0.014950561993304492 0.0024349366118504028 0.014950561993304492
1.066E9 0.0025208357824542645 0.0156769658728649 0.9974791642175455 -0.0156769658728649 0.9974791642175455 -0.0156769658728649 0.0025208357824542645 0.0156769658728649
1.087E9 0.0026117176851554766 0.01639793963040605 0.9973882823148444 -0.01639793963040605 0.9973882823148444 -0.01639793963040605 0.0026117176851554766 0.01639793963040605
1.108E9 0.0027080984633171064 0.017113963988094855 0.9972919015366827 -0.017113963988094855 0.9972919015366827 -0.017113963988094855 0.0027080984633171064 0.017113963988094855
1.129E9 0.0028105803944334182 0.017825450238327767 0.9971894196055667 -0.017825450238327767 0.9971894196055667 -0.017825450238327767 0.0028105803944334182 0.017825450238327767
1.15E9 0.002919865488755167 0.018532726322269072 0.9970801345112448 -0.018532726322269072 0.9970801345112448 -0.018532726322269072 0.002919865488755167 0.018532726322269072
1.171E9 0.0030367703170254097 0.019236016123421976 0.9969632296829746 -0.019236016123421976 0.9969632296829746 -0.019236016123421976 0.0030367703170254097 0.019236016123421976
1.192E9 0.0031622412652395435 0.019935409723852764 0.9968377587347602 -0.019935409723852764 0.9968377587347602 -0.019935409723852764 0.0031622412652395435 0.019935409723852764
1.213E9 0.0032973685858522918 0.020630821681469746 0.9967026314141478 -0.020630821681469746 0.9967026314141478 -0.020630821681469746 0.0032973685858522918 0.020630821681469746
1.234E9 0.003443396228194465 0.021321933634286624 0.9965566037718053 -0.021321933634286624 0.9965566037718053 -0.021321933634286624 0.003443396228194465 0.021321933634286624
1.255E9 0.0036017221842025177 0.022008116884304024 0.9963982778157975 -0.022008116884304024 0.9963982778157975 -0.022008116884304024 0.0036017221842025177 0.022008116884304024
1.276E9 0.0037738805757409634 0.022688330441882395 0.9962261194242591 -0.022688330441882395 0.9962261194242591 -0.022688330441882395 0.0037738805757409634 0.022688330441882395
1.297E9 0.003961491481660086 0.023360991113729045 0.9960385085183401 -0.023360991113729045 0.9960385085183401 -0.023360991113729045 0.003961491481660086 0.023360991113729045
1.318E9 0.00416615725016289 0.02402381608736041 0.9958338427498371 -0.02402381608736041 0.9958338427498371 -0.02402381608736041 0.00416615725016289 0.02402381608736041
1.339E9 0.0043892751486971195 0.024673647651128422 0.9956107248513029 -0.024673647651128422 0.9956107248513029 -0.024673647651128422 0.0043892751486971195 0.024673647651128422
1.36E9 0.004631727928319454 0.025306287981532453 0.9953682720716803 -0.025306287981532453 0.9953682720716803 -0.025306287981532453 0.004631727928319454 0.025306287981532453
1.381E9 0.004893412501400854 0.02591640366197977 0.9951065874985991 -0.02591640366197977 0.9951065874985991 -0.02591640366197977 0.004893412501400854 0.02591640366197977
1.402E9 0.005172585629041012 0.02649760647618957 0.994827414370959 -0.02649760647618957 0.994827414370959 -0.02649760647618957 0.005172585629041012 0.02649760647618957
1.423E9 0.005465065693043743 0.027042870055491334 0.9945349343069562 -0.027042870055491334 0.9945349343069562 -0.027042870055491334 0.005465065693043743 0.027042870055491334
1.444E9 0.005763453819022457 0.02754546755104277 0.9942365461809775 -0.02754546755104277 0.9942365461809775 -0.02754546755104277 0.005763453819022457 0.02754546755104277
1.465E9 0.006056722170817292 0.028000543939856817 0.9939432778291823 -0.028000543939856817 0.9939432778291823 -0.028000543939856817 0.006056722170817292 0.028000543939856817
1.486E9 0.006330680790897879 0.028407182133264458 0.9936693192091022 -0.028407182133264458 0.9936693192091022 -0.028407182133264458 0.006330680790897879 0.028407182133264458
1.507E9 0.006569782773838803 0.02877037717291916 0.9934302172261611 -0.02877037717291916 0.9934302172261611 -0.02877037717291916 0.006569782773838803 0.02877037717291916
1.528E9 0.006760246969335085 0.029101917044132626 0.9932397530306649 -0.029101917044132626 0.9932397530306649 -0.029101917044132626 0.006760246969335085 0.029101917044132626
1.549E9 0.006893625808961606 0.029419236751237806 0.9931063741910384 -0.029419236751237806 0.9931063741910384 -0.029419236751237806 0.006893625808961606 0.029419236751237806
1.57E9 0.006969290141576574 0.029742166462956625 0.9930307098584237 -0.029742166462956625 0.9930307098584237 -0.029742166462956625 0.006969290141576574 0.029742166462956625
1.591E9 0.006994571419298678 0.030088726924894973 0.9930054285807014 -0.030088726924894973 0.9930054285807014 -0.030088726924894973 0.006994571419298678 0.030088726924894973
1.612E9 0.00698251986543097 0.030471739209487748 0.9930174801345689 -0.030471739209487748 0.9930174801345689 -0.030471739209487748 0.00698251986543097 0.030471739209487748
1.633E9 0.0069484721875660675 0.030897450639137833 0.9930515278124339 -0.030897450639137833 0.9930515278124339 -0.030897450639137833 0.0069484721875660675 0.030897450639137833
1.654E9 0.006906934606491486 0.03136617374804036 0.9930930653935085 -0.03136617374804036 0.9930930653935085 -0.03136617374804036 0.006906934606491486 0.03136617374804036
1.675E9 0.006869680817409738 0.03187407284584923 0.9931303191825903 -0.03187407284584923 0.9931303191825903 -0.03187407284584923 0.006869680817409738 0.03187407284584923
1.696E9 0.006845140976863775 0.03241512841240684 0.993154859023136 -0.03241512841240684 0.993154859023136 -0.03241512841240684 0.006845140976863775 0.03241512841240684
1.717E9 0.006838673781932726 0.032982686629992236 0.9931613262180673 -0.032982686629992236 0.9931613262180673 -0.032982686629992236 0.006838673781932726 0.032982686629992236
1.738E9 0.00685323982577836 0.03357042518098117 0.9931467601742214 -0.03357042518098117 0.9931467601742214 -0.03357042518098117 0.00685323982577836 0.03357042518098117
1.759E9 0.006890135203273514 0.03417281928497703 0.9931098647967265 -0.03417281928497703 0.9931098647967265 -0.03417281928497703 0.006890135203273514 0.03417281928497703
1.78E9 0.006949615261030918 0.034785272249855045 0.993050384738969 -0.034785272249855045 0.993050384738969 -0.034785272249855045 0.006949615261030918 0.034785272249855045
1.801E9 0.007031358135673096 0.03540405937712687 0.9929686418643269 -0.03540405937712687 0.9929686418643269 -0.03540405937712687 0.007031358135673096 0.03540405937712687
1.822E9 0.007134778818374615 0.036026188364321886 0.9928652211816253 -0.036026188364321886 0.9928652211816253 -0.036026188364321886 0.007134778818374615 0.036026188364321886
1.843E9 0.007259225953569902 0.03664923643440868 0.9927407740464301 -0.03664923643440868 0.9927407740464301 -0.03664923643440868 0.007259225953569902 0.03664923643440868
1.864E9 0.00740409490262664 0.03727119424340394 0.9925959050973732 -0.03727119424340394 0.9925959050973732 -0.03727119424340394 0.00740409490262664 0.03727119424340394
1.885E9 0.0075688842817443125 0.03789032857044357 0.9924311157182554 -0.03789032857044357 0.9924311157182554 -0.03789032857044357 0.0075688842817443125 0.03789032857044357
1.906E9 0.007753215462266928 0.038505066324324266 0.992246784537733 -0.038505066324324266 0.992246784537733 -0.038505066324324266 0.007753215462266928 0.038505066324324266
1.927E9 0.007956827846786814 0.03911389815072349 0.9920431721532134 -0.03911389815072349 0.9920431721532134 -0.03911389815072349 0.007956827846786814 0.03911389815072349
1.948E9 0.008179557699015032 0.03971529854957594 0.9918204423009851 -0.03971529854957594 0.9918204423009851 -0.03971529854957594 0.008179557699015032 0.03971529854957594
1.969E9 0.008421304772140406 0.04030765949997995 0.9915786952278596 -0.04030765949997995 0.9915786952278596 -0.04030765949997995 0.008421304772140406 0.04030765949997995
1.99E9 0.008681988619550203 0.040889235375017714 0.9913180113804496 -0.040889235375017714 0.9913180113804496 -0.040889235375017714 0.008681988619550203 0.040889235375017714
2.011E9 0.008961494979102955 0.04145809803591496 0.9910385050208971 -0.04145809803591496 0.9910385050208971 -0.04145809803591496 0.008961494979102955 0.04145809803591496
2.032E9 0.009259611787705452 0.04201210226082148 0.9907403882122944 -0.04201210226082148 0.9907403882122944 -0.04201210226082148 0.009259611787705452 0.04201210226082148
2.053E9 0.00957595409980781 0.04254886302321188 0.9904240459001922 -0.04254886302321188 0.9904240459001922 -0.04254886302321188 0.00957595409980781 0.04254886302321188
2.074E9 0.009909877435368822 0.043065747548983346 0.9900901225646312 -0.043065747548983346 0.9900901225646312 -0.043065747548983346 0.009909877435368822 0.043065747548983346
2.095E9 0.010260379924168206 0.04355988648408329 0.9897396200758319 -0.04355988648408329 0.9897396200758319 -0.04355988648408329 0.010260379924168206 0.04355988648408329
2.116E9 0.010625995140686581 0.04402820976181989 0.9893740048593134 -0.04402820976181989 0.9893740048593134 -0.04402820976181989 0.010625995140686581 0.04402820976181989
2.137E9 0.0110046798334719 0.04446751363202117 0.9889953201665281 -0.04446751363202117 0.9889953201665281 -0.04446751363202117 0.0110046798334719 0.04446751363202117
2.158E9 0.011393703875680436 0.04487456543452758 0.9886062961243195 -0.04487456543452758 0.9886062961243195 -0.04487456543452758 0.011393703875680436 0.04487456543452758
2.179E9 0.011789553571306758 0.04524625157201174 0.9882104464286932 -0.04524625157201174 0.9882104464286932 -0.04524625157201174 0.011789553571306758 0.04524625157201174
2.2E9 0.01218786354264113 0.045579771196320874 0.9878121364573587 -0.045579771196320874 0.9878121364573587 -0.045579771196320874 0.01218786354264113 0.045579771196320874
2.221E9 0.012583396013003921 0.04587287287284495 0.9874166039869959 -0.04587287287284495 0.9874166039869959 -0.04587287287284495 0.012583396013003921 0.04587287287284495
2.242E9 0.012970088168201548 0.046124123746666176 0.9870299118317987 -0.046124123746666176 0.9870299118317987 -0.046124123746666176 0.012970088168201548 0.046124123746666176
2.263E9 0.013341186886282733 0.04633319096043739 0.9866588131137173 -0.04633319096043739 0.9866588131137173 -0.04633319096043739 0.013341186886282733 0.04633319096043739
2.284E9 0.013689483941068323 0.04650110468236686 0.9863105160589317 -0.04650110468236686 0.9863105160589317 -0.04650110468236686 0.013689483941068323 0.04650110468236686
2.305E9 0.01400765291927653 0.04663046359096003 0.9859923470807236 -0.04663046359096003 0.9859923470807236 -0.04663046359096003 0.01400765291927653 0.04663046359096003
2.326E9 0.0142886720675959 0.04672554031040327 0.9857113279324039 -0.04672554031040327 0.9857113279324039 -0.04672554031040327 0.0142886720675959 0.04672554031040327
2.347E9 0.014526297665940251 0.04679224927011867 0.9854737023340596 -0.04679224927011867 0.9854737023340596 -0.04679224927011867 0.014526297665940251 0.04679224927011867
2.368E9 0.014715534904069145 0.046837954468089305 0.9852844650959308 -0.046837954468089305 0.9852844650959308 -0.046837954468089305 0.014715534904069145 0.046837954468089305
2.389E9 0.014853043250511615 0.046871118496580766 0.9851469567494884 -0.046871118496580766 0.9851469567494884 -0.046871118496580766 0.014853043250511615 0.046871118496580766
2.41E9 0.0149374156516977 0.04690082236400047 0.9850625843483022 -0.04690082236400047 0.9850625843483022 -0.04690082236400047 0.0149374156516977 0.04690082236400047
2.431E9 0.014969287163667125 0.046936210999375456 0.9850307128363329 -0.046936210999375456 0.9850307128363329 -0.046936210999375456 0.014969287163667125 0.046936210999375456
2.452E9 0.01495125594096618 0.04698593453286675 0.9850487440590336 -0.04698593453286675 0.9850487440590336 -0.04698593453286675 0.01495125594096618 0.04698593453286675
