!Murata Part Number: GRM1555C1H271GA01
!These Parameters are Measured in Series Mode Connection
!       o--ll--o
!Port1            Port2
!       o------o
!Operation Temp=25[degC], DC Bias Voltage=0[V]
!Freq. Start=100[MHz] Stop=8.5[GHz], 401[Steps]
!Data Generated on Jan 10, 2017
# Hz S RI R 50
!Freq.(Hz) S11(Real) S11(Imag) S21(Real) S21(Imag) S12(Real) S12(Imag) S22(Real) S22(Imag)
1.0E8 0.004036625829913717 -0.05618081832650023 0.9959633741700862 0.05618081832650023 0.9959633741700862 0.05618081832650023 0.004036625829913717 -0.05618081832650023
1.21E8 0.0029547950107693278 -0.045530052705136416 0.9970452049892307 0.045530052705136416 0.9970452049892307 0.045530052705136416 0.0029547950107693278 -0.045530052705136416
1.42E8 0.0023216633877974646 -0.03785690389327455 0.9976783366122024 0.03785690389327455 0.9976783366122024 0.03785690389327455 0.0023216633877974646 -0.03785690389327455
1.63E8 0.0019231960312636558 -0.03201835440975969 0.9980768039687363 0.03201835440975969 0.9980768039687363 0.03201835440975969 0.0019231960312636558 -0.03201835440975969
1.84E8 0.0016596337432697632 -0.027389529592043382 0.9983403662567303 0.027389529592043382 0.9983403662567303 0.027389529592043382 0.0016596337432697632 -0.027389529592043382
2.05E8 0.0014793940543127173 -0.023600201619242738 0.9985206059456874 0.023600201619242738 0.9985206059456874 0.023600201619242738 0.0014793940543127173 -0.023600201619242738
2.26E8 0.001353625861794289 -0.020417139967353896 0.9986463741382057 0.020417139967353896 0.9986463741382057 0.020417139967353896 0.001353625861794289 -0.020417139967353896
2.47E8 0.0012651675728054083 -0.017686134953464216 0.9987348324271944 0.017686134953464216 0.9987348324271944 0.017686134953464216 0.0012651675728054083 -0.017686134953464216
2.68E8 0.001203292802472504 -0.01530115244912939 0.9987967071975273 0.01530115244912939 0.9987967071975273 0.01530115244912939 0.001203292802472504 -0.01530115244912939
2.89E8 0.0011610196857391238 -0.013186884999213945 0.9988389803142609 0.013186884999213945 0.9988389803142609 0.013186884999213945 0.0011610196857391238 -0.013186884999213945
3.1E8 0.0011336478631670012 -0.011288372056545109 0.9988663521368328 0.011288372056545109 0.9988663521368328 0.011288372056545109 0.0011336478631670012 -0.011288372056545109
3.31E8 0.0011179222397443517 -0.009564560411277647 0.9988820777602556 0.009564560411277647 0.9988820777602556 0.009564560411277647 0.0011179222397443517 -0.009564560411277647
3.52E8 0.0011115343531484002 -0.007984164050735059 0.9988884656468514 0.007984164050735059 0.9988884656468514 0.007984164050735059 0.0011115343531484002 -0.007984164050735059
3.73E8 0.001112814087870575 -0.006522919474530261 0.9988871859121294 0.006522919474530261 0.9988871859121294 0.006522919474530261 0.001112814087870575 -0.006522919474530261
3.94E8 0.0011205330254613908 -0.005161716939245803 0.9988794669745387 0.005161716939245803 0.9988794669745387 0.005161716939245803 0.0011205330254613908 -0.005161716939245803
4.15E8 0.0011337755698887955 -0.003885297944380735 0.9988662244301111 0.003885297944380735 0.9988662244301111 0.003885297944380735 0.0011337755698887955 -0.003885297944380735
4.36E8 0.0011518525008488484 -0.002681328363494163 0.9988481474991512 0.002681328363494163 0.9988481474991512 0.002681328363494163 0.0011518525008488484 -0.002681328363494163
4.57E8 0.0011742418315951728 -0.0015397265671917477 0.9988257581684048 0.0015397265671917477 0.9988257581684048 0.0015397265671917477 0.0011742418315951728 -0.0015397265671917477
4.78E8 0.0012005476909769913 -4.5216822324259696E-4 0.9987994523090229 4.5216822324259696E-4 0.9987994523090229 4.5216822324259696E-4 0.0012005476909769913 -4.5216822324259696E-4
4.99E8 0.0012304713938445073 5.882842118451237E-4 0.9987695286061552 -5.882842118451237E-4 0.9987695286061552 -5.882842118451237E-4 0.0012304713938445073 5.882842118451237E-4
5.2E8 0.001263790952986519 0.0015874625214072182 0.9987362090470134 -0.0015874625214072182 0.9987362090470134 -0.0015874625214072182 0.001263790952986519 0.0015874625214072182
5.41E8 0.001300346587224131 0.002550308566018988 0.9986996534127757 -0.002550308566018988 0.9986996534127757 -0.002550308566018988 0.001300346587224131 0.002550308566018988
5.62E8 0.001340030613047693 0.003481041962152918 0.9986599693869522 -0.003481041962152918 0.9986599693869522 -0.003481041962152918 0.001340030613047693 0.003481041962152918
5.83E8 0.0013827806555247659 0.004383291724461957 0.9986172193444754 -0.004383291724461957 0.9986172193444754 -0.004383291724461957 0.0013827806555247659 0.004383291724461957
6.04E8 0.0014285754876994124 0.005260200613053298 0.9985714245123004 -0.005260200613053298 0.9985714245123004 -0.005260200613053298 0.0014285754876994124 0.005260200613053298
6.25E8 0.0014774330735032471 0.00611450855854975 0.9985225669264969 -0.00611450855854975 0.9985225669264969 -0.00611450855854975 0.0014774330735032471 0.00611450855854975
6.46E8 0.001529410589938025 0.006948619847560613 0.9984705894100618 -0.006948619847560613 0.9984705894100618 -0.006948619847560613 0.001529410589938025 0.006948619847560613
6.67E8 0.0015846063682395989 0.00776465751792536 0.9984153936317605 -0.00776465751792536 0.9984153936317605 -0.00776465751792536 0.0015846063682395989 0.00776465751792536
6.88E8 0.001643163840649329 0.0085645074848558 0.9983568361593508 -0.0085645074848558 0.9983568361593508 -0.0085645074848558 0.001643163840649329 0.0085645074848558
7.09E8 0.001705277723778751 0.009349854186034845 0.9982947222762213 -0.009349854186034845 0.9982947222762213 -0.009349854186034845 0.001705277723778751 0.009349854186034845
7.3E8 0.0017712028218898148 0.010122208909060139 0.9982287971781101 -0.010122208909060139 0.9982287971781101 -0.010122208909060139 0.0017712028218898148 0.010122208909060139
7.51E8 0.0018412659996616988 0.010882931369885798 0.9981587340003383 -0.010882931369885798 0.9981587340003383 -0.010882931369885798 0.0018412659996616988 0.010882931369885798
7.72E8 0.0019158820518352185 0.011633244462292974 0.9980841179481647 -0.011633244462292974 0.9980841179481647 -0.011633244462292974 0.0019158820518352185 0.011633244462292974
7.93E8 0.001995574366602821 0.012374241291680665 0.9980044256333973 -0.012374241291680665 0.9980044256333973 -0.012374241291680665 0.001995574366602821 0.012374241291680665
8.14E8 0.0020810013828298736 0.013106882498735909 0.99791899861717 -0.013106882498735909 0.99791899861717 -0.013106882498735909 0.0020810013828298736 0.013106882498735909
8.35E8 0.0021729897396073087 0.013831980266917177 0.9978270102603928 -0.013831980266917177 0.9978270102603928 -0.013831980266917177 0.0021729897396073087 0.013831980266917177
8.56E8 0.002272574404915808 0.014550163011059433 0.9977274255950842 -0.014550163011059433 0.9977274255950842 -0.014550163011059433 0.002272574404915808 0.014550163011059433
8.77E8 0.0023810443078292423 0.015261811213628861 0.9976189556921709 -0.015261811213628861 0.9976189556921709 -0.015261811213628861 0.0023810443078292423 0.015261811213628861
8.98E8 0.0024999877971899824 0.015966949907936973 0.9975000122028099 -0.015966949907936973 0.9975000122028099 -0.015966949907936973 0.0024999877971899824 0.015966949907936973
9.19E8 0.002631323143259316 0.016665077073351606 0.9973686768567407 -0.016665077073351606 0.9973686768567407 -0.016665077073351606 0.002631323143259316 0.016665077073351606
9.4E8 0.002777280923777661 0.0173549015768288 0.9972227190762225 -0.0173549015768288 0.9972227190762225 -0.0173549015768288 0.002777280923777661 0.0173549015768288
9.61E8 0.0029402708679952413 0.018033965906447628 0.9970597291320046 -0.018033965906447628 0.9970597291320046 -0.018033965906447628 0.0029402708679952413 0.018033965906447628
9.82E8 0.003122509065592572 0.01869815567985593 0.9968774909344075 -0.01869815567985593 0.9968774909344075 -0.01869815567985593 0.003122509065592572 0.01869815567985593
1.003E9 0.003325208316532259 0.01934118889951726 0.996674791683468 -0.01934118889951726 0.996674791683468 -0.01934118889951726 0.003325208316532259 0.01934118889951726
1.024E9 0.0035471004732167775 0.019954395952768822 0.9964528995267831 -0.019954395952768822 0.9964528995267831 -0.019954395952768822 0.0035471004732167775 0.019954395952768822
1.045E9 0.003782241800498352 0.020527479128970138 0.9962177581995016 -0.020527479128970138 0.9962177581995016 -0.020527479128970138 0.003782241800498352 0.020527479128970138
1.066E9 0.004017772714962619 0.021051267297423033 0.9959822272850375 -0.021051267297423033 0.9959822272850375 -0.021051267297423033 0.004017772714962619 0.021051267297423033
1.087E9 0.004233658576589974 0.021522956548011785 0.9957663414234099 -0.021522956548011785 0.9957663414234099 -0.021522956548011785 0.004233658576589974 0.021522956548011785
1.108E9 0.00440719623170503 0.02195190086361552 0.995592803768295 -0.02195190086361552 0.995592803768295 -0.02195190086361552 0.00440719623170503 0.02195190086361552
1.129E9 0.004522428318644169 0.022360845710421948 0.995477571681356 -0.022360845710421948 0.995477571681356 -0.022360845710421948 0.004522428318644169 0.022360845710421948
1.15E9 0.004578668504783034 0.022778750447073965 0.9954213314952169 -0.022778750447073965 0.9954213314952169 -0.022778750447073965 0.004578668504783034 0.022778750447073965
1.171E9 0.00459067251203429 0.023229083575535558 0.9954093274879657 -0.023229083575535558 0.9954093274879657 -0.023229083575535558 0.00459067251203429 0.023229083575535558
1.192E9 0.004580481720995757 0.0237225077818125 0.9954195182790041 -0.0237225077818125 0.9954195182790041 -0.0237225077818125 0.004580481720995757 0.0237225077818125
1.213E9 0.004568273973438834 0.024257735276600915 0.9954317260265612 -0.024257735276600915 0.9954317260265612 -0.024257735276600915 0.004568273973438834 0.024257735276600915
1.234E9 0.004567811842424556 0.02482685696871357 0.9954321881575754 -0.02482685696871357 0.9954321881575754 -0.02482685696871357 0.004567811842424556 0.02482685696871357
1.255E9 0.004586414088285995 0.02542030483302424 0.9954135859117139 -0.02542030483302424 0.9954135859117139 -0.02542030483302424 0.004586414088285995 0.02542030483302424
1.276E9 0.004626890902675844 0.026029571453266554 0.9953731090973241 -0.026029571453266554 0.9953731090973241 -0.026029571453266554 0.004626890902675844 0.026029571453266554
1.297E9 0.004689547456360958 0.026648068063957305 0.9953104525436388 -0.026648068063957305 0.9953104525436388 -0.026648068063957305 0.004689547456360958 0.026648068063957305
1.318E9 0.004773587792010364 0.027271022929649048 0.9952264122079898 -0.027271022929649048 0.9952264122079898 -0.027271022929649048 0.004773587792010364 0.027271022929649048
1.339E9 0.004877921556682972 0.027895054304539396 0.9951220784433169 -0.027895054304539396 0.9951220784433169 -0.027895054304539396 0.004877921556682972 0.027895054304539396
1.36E9 0.005001562143849077 0.028517718681488526 0.9949984378561508 -0.028517718681488526 0.9949984378561508 -0.028517718681488526 0.005001562143849077 0.028517718681488526
1.381E9 0.005143787989957302 0.02913713467101505 0.9948562120100427 -0.02913713467101505 0.9948562120100427 -0.02913713467101505 0.005143787989957302 0.02913713467101505
1.402E9 0.005304178583553096 0.02975169461448116 0.9946958214164467 -0.02975169461448116 0.9946958214164467 -0.02975169461448116 0.005304178583553096 0.02975169461448116
1.423E9 0.005482586571274591 0.03035984714922948 0.9945174134287257 -0.03035984714922948 0.9945174134287257 -0.03035984714922948 0.005482586571274591 0.03035984714922948
1.444E9 0.00567907518324852 0.030959929930866575 0.9943209248167515 -0.030959929930866575 0.9943209248167515 -0.030959929930866575 0.00567907518324852 0.030959929930866575
1.465E9 0.005893831652625497 0.03155003621950064 0.9941061683473745 -0.03155003621950064 0.9941061683473745 -0.03155003621950064 0.005893831652625497 0.03155003621950064
1.486E9 0.006127057122624773 0.03212790576763622 0.9938729428773754 -0.03212790576763622 0.9938729428773754 -0.03212790576763622 0.006127057122624773 0.03212790576763622
1.507E9 0.006378828271859772 0.032690837619102346 0.9936211717281401 -0.032690837619102346 0.9936211717281401 -0.032690837619102346 0.006378828271859772 0.032690837619102346
1.528E9 0.0066489239262758435 0.033235629925961824 0.9933510760737242 -0.033235629925961824 0.9933510760737242 -0.033235629925961824 0.0066489239262758435 0.033235629925961824
1.549E9 0.006936611052005222 0.03375855994658411 0.9930633889479947 -0.03375855994658411 0.9930633889479947 -0.03375855994658411 0.006936611052005222 0.03375855994658411
1.57E9 0.007240389556734724 0.03425542583492544 0.9927596104432652 -0.03425542583492544 0.9927596104432652 -0.03425542583492544 0.007240389556734724 0.03425542583492544
1.591E9 0.007557705709186788 0.03472167946161828 0.9924422942908131 -0.03472167946161828 0.9924422942908131 -0.03472167946161828 0.007557705709186788 0.03472167946161828
1.612E9 0.007884661055584451 0.035152683432511496 0.9921153389444154 -0.035152683432511496 0.9921153389444154 -0.035152683432511496 0.007884661055584451 0.035152683432511496
1.633E9 0.008215767330394336 0.03554412072199671 0.9917842326696055 -0.03554412072199671 0.9917842326696055 -0.03554412072199671 0.008215767330394336 0.03554412072199671
1.654E9 0.00854382427579932 0.03589256543135691 0.9914561757242005 -0.03589256543135691 0.9914561757242005 -0.03589256543135691 0.00854382427579932 0.03589256543135691
1.675E9 0.008860016867586511 0.03619618270429385 0.9911399831324135 -0.03619618270429385 0.9911399831324135 -0.03619618270429385 0.008860016867586511 0.03619618270429385
1.696E9 0.00915432525478394 0.03645546576213475 0.990845674745216 -0.03645546576213475 0.990845674745216 -0.03645546576213475 0.00915432525478394 0.03645546576213475
1.717E9 0.009416297111091414 0.0366738524211301 0.9905837028889086 -0.0366738524211301 0.9905837028889086 -0.0366738524211301 0.009416297111091414 0.0366738524211301
1.738E9 0.009636140406513507 0.03685802238580778 0.9903638595934865 -0.03685802238580778 0.9903638595934865 -0.03685802238580778 0.009636140406513507 0.03685802238580778
1.759E9 0.009805972195236882 0.03701769754937205 0.9901940278047632 -0.03701769754937205 0.9901940278047632 -0.03701769754937205 0.009805972195236882 0.03701769754937205
1.78E9 0.009920954186346127 0.03716487215294577 0.990079045813654 -0.03716487215294577 0.990079045813654 -0.03716487215294577 0.009920954186346127 0.03716487215294577
1.801E9 0.009980020335072008 0.037312567423588905 0.9900199796649279 -0.037312567423588905 0.9900199796649279 -0.037312567423588905 0.009980020335072008 0.037312567423588905
1.822E9 0.009985990909999215 0.03747336874111117 0.9900140090900008 -0.03747336874111117 0.9900140090900008 -0.03747336874111117 0.009985990909999215 0.03747336874111117
1.843E9 0.009945046416115308 0.03765808133551831 0.9900549535838848 -0.03765808133551831 0.9900549535838848 -0.03765808133551831 0.009945046416115308 0.03765808133551831
1.864E9 0.009865723747265149 0.037874791732890545 0.990134276252735 -0.037874791732890545 0.990134276252735 -0.037874791732890545 0.009865723747265149 0.037874791732890545
1.885E9 0.009757710826432505 0.03812847478336264 0.9902422891735675 -0.03812847478336264 0.9902422891735675 -0.03812847478336264 0.009757710826432505 0.03812847478336264
1.906E9 0.009630717184028765 0.03842111631150701 0.9903692828159711 -0.03842111631150701 0.9903692828159711 -0.03842111631150701 0.009630717184028765 0.03842111631150701
1.927E9 0.00949361076390632 0.0387522015260349 0.9905063892360938 -0.0387522015260349 0.9905063892360938 -0.0387522015260349 0.00949361076390632 0.0387522015260349
1.948E9 0.009353893486331791 0.039119379381016284 0.9906461065136681 -0.039119379381016284 0.9906461065136681 -0.039119379381016284 0.009353893486331791 0.039119379381016284
1.969E9 0.009217490922472074 0.03951913930542356 0.9907825090775279 -0.03951913930542356 0.9907825090775279 -0.03951913930542356 0.009217490922472074 0.03951913930542356
1.99E9 0.009088777930062231 0.039947394802162875 0.9909112220699378 -0.039947394802162875 0.9909112220699378 -0.039947394802162875 0.009088777930062231 0.039947394802162875
2.011E9 0.008970749428109326 0.0403999274277523 0.9910292505718906 -0.0403999274277523 0.9910292505718906 -0.0403999274277523 0.008970749428109326 0.0403999274277523
2.032E9 0.008865258405494916 0.04087268792441183 0.991134741594505 -0.04087268792441183 0.991134741594505 -0.04087268792441183 0.008865258405494916 0.04087268792441183
2.053E9 0.00877326614365909 0.04136197533827569 0.9912267338563411 -0.04136197533827569 0.9912267338563411 -0.04136197533827569 0.00877326614365909 0.04136197533827569
2.074E9 0.008695072106505795 0.04186452371007291 0.9913049278934943 -0.04186452371007291 0.9913049278934943 -0.04186452371007291 0.008695072106505795 0.04186452371007291
2.095E9 0.00863050829866914 0.042377525274345 0.991369491701331 -0.042377525274345 0.991369491701331 -0.042377525274345 0.00863050829866914 0.042377525274345
2.116E9 0.008579094251760537 0.04289861406517408 0.9914209057482395 -0.04289861406517408 0.9914209057482395 -0.04289861406517408 0.008579094251760537 0.04289861406517408
2.137E9 0.008540155163035057 0.043425827651665756 0.9914598448369651 -0.043425827651665756 0.9914598448369651 -0.043425827651665756 0.008540155163035057 0.043425827651665756
2.158E9 0.008512908593820645 0.04395755909714839 0.9914870914061792 -0.04395755909714839 0.9914870914061792 -0.04395755909714839 0.008512908593820645 0.04395755909714839
2.179E9 0.008496525897970722 0.04449250678492236 0.9915034741020293 -0.04449250678492236 0.9915034741020293 -0.04449250678492236 0.008496525897970722 0.04449250678492236
2.2E9 0.008490174189563694 0.0450296265403952 0.9915098258104363 -0.0450296265403952 0.9915098258104363 -0.0450296265403952 0.008490174189563694 0.0450296265403952
2.221E9 0.008493043811516958 0.04556808831595937 0.9915069561884831 -0.04556808831595937 0.9915069561884831 -0.04556808831595937 0.008493043811516958 0.04556808831595937
2.242E9 0.008504365297006872 0.046107238336021546 0.9914956347029932 -0.046107238336021546 0.9914956347029932 -0.046107238336021546 0.008504365297006872 0.046107238336021546
2.263E9 0.008523418906919378 0.046646566788955963 0.9914765810930805 -0.046646566788955963 0.9914765810930805 -0.046646566788955963 0.008523418906919378 0.046646566788955963
2.284E9 0.008549539054193554 0.0471856807126169 0.9914504609458064 -0.0471856807126169 0.9914504609458064 -0.0471856807126169 0.008549539054193554 0.0471856807126169
2.305E9 0.008582115306481671 0.04772428151361028 0.9914178846935184 -0.04772428151361028 0.9914178846935184 -0.04772428151361028 0.008582115306481671 0.04772428151361028
2.326E9 0.008620591180581793 0.04826214649394848 0.9913794088194183 -0.04826214649394848 0.9913794088194183 -0.04826214649394848 0.008620591180581793 0.04826214649394848
2.347E9 0.008664461583337025 0.04879911377055315 0.9913355384166628 -0.04879911377055315 0.9913355384166628 -0.04879911377055315 0.008664461583337025 0.04879911377055315
2.368E9 0.008713269489993609 0.04933507002474479 0.9912867305100066 -0.04933507002474479 0.9912867305100066 -0.04933507002474479 0.008713269489993609 0.04933507002474479
2.389E9 0.008766602260422621 0.04986994058714019 0.9912333977395773 -0.04986994058714019 0.9912333977395773 -0.04986994058714019 0.008766602260422621 0.04986994058714019
2.41E9 0.00882408785784945 0.05040368143499377 0.9911759121421505 -0.05040368143499377 0.9911759121421505 -0.05040368143499377 0.00882408785784945 0.05040368143499377
2.431E9 0.008885391139321816 0.05093627274689908 0.9911146088606781 -0.05093627274689908 0.9911146088606781 -0.05093627274689908 0.008885391139321816 0.05093627274689908
2.452E9 0.008950210320994259 0.05146771372061063 0.9910497896790055 -0.05146771372061063 0.9910497896790055 -0.05146771372061063 0.008950210320994259 0.05146771372061063
