!Murata Part Number: GRT1555C1E101JA02
!These Parameters are Measured in Series Mode Connection
!       o--ll--o
!Port1            Port2
!       o------o
!Operation Temp=25[degC], DC Bias Voltage=0[V]
!Freq. Start=100[MHz] Stop=8.5[GHz], 401[Steps]
!Data Generated on Jan 10, 2017
# Hz S RI R 50
!Freq.(Hz) S11(Real) S11(Imag) S21(Real) S21(Imag) S12(Real) S12(Imag) S22(Real) S22(Imag)
1.0E8 0.0250197748882934 -0.15268031544203234 0.9749802251117067 0.15268031544203234 0.9749802251117067 0.15268031544203234 0.0250197748882934 -0.15268031544203234
1.21E8 0.01734318720732761 -0.12627833147015494 0.9826568127926726 0.12627833147015494 0.9826568127926726 0.12627833147015494 0.01734318720732761 -0.12627833147015494
1.42E8 0.012760204122456847 -0.10719138567850706 0.9872397958775431 0.10719138567850706 0.9872397958775431 0.10719138567850706 0.012760204122456847 -0.10719138567850706
1.63E8 0.009813679498657468 -0.09273448688975244 0.9901863205013426 0.09273448688975244 0.9901863205013426 0.09273448688975244 0.009813679498657468 -0.09273448688975244
1.84E8 0.0078118970721284715 -0.08138224787236041 0.9921881029278715 0.08138224787236041 0.9921881029278715 0.08138224787236041 0.0078118970721284715 -0.08138224787236041
2.05E8 0.006393062764532331 -0.07220872569605012 0.9936069372354676 0.07220872569605012 0.9936069372354676 0.07220872569605012 0.006393062764532331 -0.07220872569605012
2.26E8 0.005353275093818265 -0.06462102205306876 0.9946467249061816 0.06462102205306876 0.9946467249061816 0.06462102205306876 0.005353275093818265 -0.06462102205306876
2.47E8 0.004570603737996789 -0.05822259157259307 0.9954293962620032 0.05822259157259307 0.9954293962620032 0.05822259157259307 0.004570603737996789 -0.05822259157259307
2.68E8 0.003968537950879198 -0.05273847943444702 0.9960314620491207 0.05273847943444702 0.9960314620491207 0.05273847943444702 0.003968537950879198 -0.05273847943444702
2.89E8 0.0034971114797846233 -0.04797218177025987 0.9965028885202155 0.04797218177025987 0.9965028885202155 0.04797218177025987 0.0034971114797846233 -0.04797218177025987
3.1E8 0.0031225765671012377 -0.04377960182691862 0.9968774234328989 0.04377960182691862 0.9968774234328989 0.04377960182691862 0.0031225765671012377 -0.04377960182691862
3.31E8 0.0028214750490715168 -0.040052709026690725 0.9971785249509286 0.040052709026690725 0.9971785249509286 0.040052709026690725 0.0028214750490715168 -0.040052709026690725
3.52E8 0.002577091254920118 -0.036708939921468425 0.9974229087450801 0.036708939921468425 0.9974229087450801 0.036708939921468425 0.002577091254920118 -0.036708939921468425
3.73E8 0.002377253389659502 -0.03368412220445391 0.9976227466103404 0.03368412220445391 0.9976227466103404 0.03368412220445391 0.002377253389659502 -0.03368412220445391
3.94E8 0.0022129281013041975 -0.030927629743775827 0.9977870718986959 0.030927629743775827 0.9977870718986959 0.030927629743775827 0.0022129281013041975 -0.030927629743775827
4.15E8 0.0020772974193111293 -0.028398990269513306 0.9979227025806886 0.028398990269513306 0.9979227025806886 0.028398990269513306 0.0020772974193111293 -0.028398990269513306
4.36E8 0.0019651377854592467 -0.026065462503073906 0.9980348622145407 0.026065462503073906 0.9980348622145407 0.026065462503073906 0.0019651377854592467 -0.026065462503073906
4.57E8 0.001872393270453136 -0.023900274633352054 0.998127606729547 0.023900274633352054 0.998127606729547 0.023900274633352054 0.001872393270453136 -0.023900274633352054
4.78E8 0.0017958765560435897 -0.02188132294796641 0.9982041234439566 0.02188132294796641 0.9982041234439566 0.02188132294796641 0.0017958765560435897 -0.02188132294796641
4.99E8 0.0017330557619873004 -0.01999019638325775 0.9982669442380127 0.01999019638325775 0.9982669442380127 0.01999019638325775 0.0017330557619873004 -0.01999019638325775
5.2E8 0.0016819000563137025 -0.018211435671791055 0.9983180999436864 0.018211435671791055 0.9983180999436864 0.018211435671791055 0.0016819000563137025 -0.018211435671791055
5.41E8 0.0016407662190695068 -0.016531963854440203 0.9983592337809303 0.016531963854440203 0.9983592337809303 0.016531963854440203 0.0016407662190695068 -0.016531963854440203
5.62E8 0.0016083141917365418 -0.01494064366195053 0.9983916858082634 0.01494064366195053 0.9983916858082634 0.01494064366195053 0.0016083141917365418 -0.01494064366195053
5.83E8 0.001583443441587947 -0.013427929990578073 0.9984165565584119 0.013427929990578073 0.9984165565584119 0.013427929990578073 0.001583443441587947 -0.013427929990578073
6.04E8 0.001565244474918723 -0.011985594469965874 0.9984347555250813 0.011985594469965874 0.9984347555250813 0.011985594469965874 0.001565244474918723 -0.011985594469965874
6.25E8 0.0015529615130973643 -0.010606505262777684 0.9984470384869027 0.010606505262777684 0.9984470384869027 0.010606505262777684 0.0015529615130973643 -0.010606505262777684
6.46E8 0.0015459634897617444 -0.009284449593287829 0.9984540365102381 0.009284449593287829 0.9984540365102381 0.009284449593287829 0.0015459634897617444 -0.009284449593287829
6.67E8 0.0015437213182057088 -0.008013989633340891 0.9984562786817943 0.008013989633340891 0.9984562786817943 0.008013989633340891 0.0015437213182057088 -0.008013989633340891
6.88E8 0.0015457899316597998 -0.006790344650501979 0.9984542100683405 0.006790344650501979 0.9984542100683405 0.006790344650501979 0.0015457899316597998 -0.006790344650501979
7.09E8 0.0015517939916616507 -0.005609293996302631 0.9984482060083383 0.005609293996302631 0.9984482060083383 0.005609293996302631 0.0015517939916616507 -0.005609293996302631
7.3E8 0.001561416441196123 -0.004467096754723848 0.9984385835588039 0.004467096754723848 0.9984385835588039 0.004467096754723848 0.001561416441196123 -0.004467096754723848
7.51E8 0.0015743892833714071 -0.0033604248022237894 0.9984256107166284 0.0033604248022237894 0.9984256107166284 0.0033604248022237894 0.0015743892833714071 -0.0033604248022237894
7.72E8 0.0015904861159004673 -0.0022863067348757567 0.9984095138840997 0.0022863067348757567 0.9984095138840997 0.0022863067348757567 0.0015904861159004673 -0.0022863067348757567
7.93E8 0.0016095160622551176 -0.001242080655325055 0.9983904839377449 0.001242080655325055 0.9983904839377449 0.001242080655325055 0.0016095160622551176 -0.001242080655325055
8.14E8 0.0016313188229501888 -2.2535422521929142E-4 0.9983686811770497 2.2535422521929142E-4 0.9983686811770497 2.2535422521929142E-4 0.0016313188229501888 -2.2535422521929142E-4
8.35E8 0.001655760632654666 7.660292913750197E-4 0.9983442393673454 -7.660292913750197E-4 0.9983442393673454 -7.660292913750197E-4 0.001655760632654666 7.660292913750197E-4
8.56E8 0.0016827309561511963 0.001734020018527958 0.9983172690438487 -0.001734020018527958 0.9983172690438487 -0.001734020018527958 0.0016827309561511963 0.001734020018527958
8.77E8 0.0017121397924719488 0.0026803863219410297 0.9982878602075282 -0.0026803863219410297 0.9982878602075282 -0.0026803863219410297 0.0017121397924719488 0.0026803863219410297
8.98E8 0.001743915484647929 0.003606736199397758 0.998256084515352 -0.003606736199397758 0.998256084515352 -0.003606736199397758 0.001743915484647929 0.003606736199397758
9.19E8 0.0017780029544807007 0.004514535758903887 0.9982219970455193 -0.004514535758903887 0.9982219970455193 -0.004514535758903887 0.0017780029544807007 0.004514535758903887
9.4E8 0.001814362299098629 0.005405125236552286 0.9981856377009013 -0.005405125236552286 0.9981856377009013 -0.005405125236552286 0.001814362299098629 0.005405125236552286
9.61E8 0.0018529676999242332 0.00627973292663643 0.9981470323000755 -0.00627973292663643 0.9981470323000755 -0.00627973292663643 0.0018529676999242332 0.00627973292663643
9.82E8 0.0018938066059033733 0.007139487332071473 0.9981061933940966 -0.007139487332071473 0.9981061933940966 -0.007139487332071473 0.0018938066059033733 0.007139487332071473
1.003E9 0.0019368791620742551 0.007985427790559461 0.9980631208379257 -0.007985427790559461 0.9980631208379257 -0.007985427790559461 0.0019368791620742551 0.007985427790559461
1.024E9 0.0019821978622776583 0.00881851378865352 0.9980178021377224 -0.00881851378865352 0.9980178021377224 -0.00881851378865352 0.0019821978622776583 0.00881851378865352
1.045E9 0.0020297874114105995 0.009639633139964538 0.9979702125885896 -0.009639633139964538 0.9979702125885896 -0.009639633139964538 0.0020297874114105995 0.009639633139964538
1.066E9 0.002079684788402109 0.010449609173638075 0.9979203152115976 -0.010449609173638075 0.9979203152115976 -0.010449609173638075 0.002079684788402109 0.010449609173638075
1.087E9 0.002131939506276027 0.01124920705363329 0.9978680604937239 -0.01124920705363329 0.9978680604937239 -0.01124920705363329 0.002131939506276027 0.01124920705363329
1.108E9 0.002186614070445991 0.012039139327203338 0.997813385929554 -0.012039139327203338 0.997813385929554 -0.012039139327203338 0.002186614070445991 0.012039139327203338
1.129E9 0.0022437846409040863 0.012820070781407523 0.997756215359096 -0.012820070781407523 0.997756215359096 -0.012820070781407523 0.0022437846409040863 0.012820070781407523
1.15E9 0.0023035419083203288 0.013592622668686013 0.9976964580916795 -0.013592622668686013 0.9976964580916795 -0.013592622668686013 0.0023035419083203288 0.013592622668686013
1.171E9 0.0023659921983284786 0.014357376345765109 0.9976340078016718 -0.014357376345765109 0.9976340078016718 -0.014357376345765109 0.0023659921983284786 0.014357376345765109
1.192E9 0.0024312588224498764 0.015114876353721924 0.9975687411775499 -0.015114876353721924 0.9975687411775499 -0.015114876353721924 0.0024312588224498764 0.015114876353721924
1.213E9 0.0024994836981539225 0.01586563295019242 0.9975005163018461 -0.01586563295019242 0.9975005163018461 -0.01586563295019242 0.0024994836981539225 0.01586563295019242
1.234E9 0.0025708292643361204 0.01661012408666741 0.997429170735664 -0.01661012408666741 0.997429170735664 -0.01661012408666741 0.0025708292643361204 0.01661012408666741
1.255E9 0.0026454807217500586 0.01734879680370422 0.9973545192782498 -0.01734879680370422 0.9973545192782498 -0.01734879680370422 0.0026454807217500586 0.01734879680370422
1.276E9 0.002723648630208243 0.01808206799366101 0.9972763513697921 -0.01808206799366101 0.9972763513697921 -0.01808206799366101 0.002723648630208243 0.01808206799366101
1.297E9 0.0028055718949415837 0.01881032445303074 0.9971944281050587 -0.01881032445303074 0.9971944281050587 -0.01881032445303074 0.0028055718949415837 0.01881032445303074
1.318E9 0.002891521172243268 0.01953392211318122 0.9971084788277567 -0.01953392211318122 0.9971084788277567 -0.01953392211318122 0.002891521172243268 0.01953392211318122
1.339E9 0.0029818027176832036 0.020253184297614944 0.9970181972823167 -0.020253184297614944 0.9970181972823167 -0.020253184297614944 0.0029818027176832036 0.020253184297614944
1.36E9 0.003076762686151115 0.020968398803814473 0.9969232373138489 -0.020968398803814473 0.9969232373138489 -0.020968398803814473 0.003076762686151115 0.020968398803814473
1.381E9 0.0031767918678844353 0.02167981354620991 0.9968232081321156 -0.02167981354620991 0.9968232081321156 -0.02167981354620991 0.0031767918678844353 0.02167981354620991
1.402E9 0.0032823308027535186 0.022387630421652004 0.9967176691972466 -0.022387630421652004 0.9967176691972466 -0.022387630421652004 0.0032823308027535186 0.022387630421652004
1.423E9 0.003393875148123539 0.023091996968223262 0.9966061248518766 -0.023091996968223262 0.9966061248518766 -0.023091996968223262 0.003393875148123539 0.023091996968223262
1.444E9 0.003511981071718201 0.02379299528162126 0.9964880189282818 -0.02379299528162126 0.9964880189282818 -0.02379299528162126 0.003511981071718201 0.02379299528162126
1.465E9 0.003637270283351956 0.024490627532563234 0.9963627297166479 -0.024490627532563234 0.9963627297166479 -0.024490627532563234 0.003637270283351956 0.024490627532563234
1.486E9 0.003770434085131362 0.025184797300484965 0.9962295659148684 -0.025184797300484965 0.9962295659148684 -0.025184797300484965 0.003770434085131362 0.025184797300484965
1.507E9 0.003912235477968487 0.02587528581904835 0.9960877645220316 -0.02587528581904835 0.9960877645220316 -0.02587528581904835 0.003912235477968487 0.02587528581904835
1.528E9 0.004063507873735011 0.026561722149066803 0.995936492126265 -0.026561722149066803 0.995936492126265 -0.026561722149066803 0.004063507873735011 0.026561722149066803
1.549E9 0.004225148280697661 0.027243546311727027 0.9957748517193024 -0.027243546311727027 0.9957748517193024 -0.027243546311727027 0.004225148280697661 0.027243546311727027
1.57E9 0.004398101907566038 0.02791996462772138 0.995601898092434 -0.02791996462772138 0.995601898092434 -0.02791996462772138 0.004398101907566038 0.02791996462772138
1.591E9 0.004583333935972099 0.028589897075744445 0.9954166660640278 -0.028589897075744445 0.9954166660640278 -0.028589897075744445 0.004583333935972099 0.028589897075744445
1.612E9 0.004781782758752994 0.02925191765153109 0.9952182172412468 -0.02925191765153109 0.9952182172412468 -0.02925191765153109 0.004781782758752994 0.02925191765153109
1.633E9 0.004994287401555167 0.02990419082536351 0.995005712598445 -0.02990419082536351 0.995005712598445 -0.02990419082536351 0.004994287401555167 0.02990419082536351
1.654E9 0.0052214804905686245 0.030544410709059267 0.9947785195094312 -0.030544410709059267 0.9947785195094312 -0.030544410709059267 0.0052214804905686245 0.030544410709059267
1.675E9 0.005463637739907381 0.031169754922645298 0.9945363622600927 -0.031169754922645298 0.9945363622600927 -0.031169754922645298 0.005463637739907381 0.031169754922645298
1.696E9 0.005720476838052068 0.03177687266519978 0.9942795231619479 -0.03177687266519978 0.9942795231619479 -0.03177687266519978 0.005720476838052068 0.03177687266519978
1.717E9 0.005990904879792816 0.03236193573154399 0.9940090951202072 -0.03236193573154399 0.9940090951202072 -0.03236193573154399 0.005990904879792816 0.03236193573154399
1.738E9 0.006272726770951243 0.032920790256130816 0.9937272732290486 -0.032920790256130816 0.9937272732290486 -0.032920790256130816 0.006272726770951243 0.032920790256130816
1.759E9 0.006562349668684331 0.033449251296626695 0.9934376503313157 -0.033449251296626695 0.9934376503313157 -0.033449251296626695 0.006562349668684331 0.033449251296626695
1.78E9 0.006854550314127181 0.03394357414967793 0.9931454496858729 -0.03394357414967793 0.9931454496858729 -0.03394357414967793 0.006854550314127181 0.03394357414967793
1.801E9 0.007142406604300788 0.034401105415740756 0.9928575933956991 -0.034401105415740756 0.9928575933956991 -0.034401105415740756 0.007142406604300788 0.034401105415740756
1.822E9 0.007417515407034587 0.03482105599586472 0.9925824845929654 -0.03482105599586472 0.9925824845929654 -0.03482105599586472 0.007417515407034587 0.03482105599586472
1.843E9 0.007670599368423621 0.03520525303446507 0.9923294006315764 -0.03520525303446507 0.9923294006315764 -0.03520525303446507 0.007670599368423621 0.03520525303446507
1.864E9 0.007892521959261763 0.035558647951743134 0.9921074780407383 -0.035558647951743134 0.9921074780407383 -0.035558647951743134 0.007892521959261763 0.035558647951743134
1.885E9 0.008075583546125746 0.0358893364396347 0.9919244164538744 -0.0358893364396347 0.9919244164538744 -0.0358893364396347 0.008075583546125746 0.0358893364396347
1.906E9 0.008214811660894234 0.036207934552373096 0.9917851883391059 -0.036207934552373096 0.9917851883391059 -0.036207934552373096 0.008214811660894234 0.036207934552373096
1.927E9 0.008308876738178372 0.03652635392909432 0.9916911232618217 -0.03652635392909432 0.9916911232618217 -0.03652635392909432 0.008308876738178372 0.03652635392909432
1.948E9 0.008360337025038918 0.03685624977307863 0.9916396629749611 -0.03685624977307863 0.9916396629749611 -0.03685624977307863 0.008360337025038918 0.03685624977307863
1.969E9 0.008375135052884605 0.03720755182753812 0.9916248649471154 -0.03720755182753812 0.9916248649471154 -0.03720755182753812 0.008375135052884605 0.03720755182753812
1.99E9 0.008361525617436109 0.037587448307096184 0.9916384743825639 -0.037587448307096184 0.9916384743825639 -0.037587448307096184 0.008361525617436109 0.037587448307096184
2.011E9 0.008328776911979977 0.038000002502023476 0.9916712230880202 -0.038000002502023476 0.9916712230880202 -0.038000002502023476 0.008328776911979977 0.038000002502023476
2.032E9 0.0082859872213575 0.03844635493941053 0.9917140127786425 -0.03844635493941053 0.9917140127786425 -0.03844635493941053 0.0082859872213575 0.03844635493941053
2.053E9 0.008241236244133152 0.03892531161858165 0.9917587637558668 -0.03892531161858165 0.9917587637558668 -0.03892531161858165 0.008241236244133152 0.03892531161858165
2.074E9 0.008201132557153802 0.039434081952833946 0.9917988674428462 -0.039434081952833946 0.9917988674428462 -0.039434081952833946 0.008201132557153802 0.039434081952833946
2.095E9 0.00817070071501752 0.03996898018215955 0.9918292992849825 -0.03996898018215955 0.9918292992849825 -0.03996898018215955 0.00817070071501752 0.03996898018215955
2.116E9 0.008153498537088999 0.04052598662253718 0.991846501462911 -0.04052598662253718 0.991846501462911 -0.04052598662253718 0.008153498537088999 0.04052598662253718
2.137E9 0.008151854713639297 0.041101138027667065 0.9918481452863606 -0.041101138027667065 0.9918481452863606 -0.041101138027667065 0.008151854713639297 0.041101138027667065
2.158E9 0.00816714326976705 0.0416907622233809 0.9918328567302331 -0.0416907622233809 0.9918328567302331 -0.0416907622233809 0.00816714326976705 0.0416907622233809
2.179E9 0.00820004348520697 0.0422915921356462 0.991799956514793 -0.0422915921356462 0.991799956514793 -0.0422915921356462 0.00820004348520697 0.0422915921356462
2.2E9 0.008250760333905142 0.04290079700730994 0.9917492396660949 -0.04290079700730994 0.9917492396660949 -0.04290079700730994 0.008250760333905142 0.04290079700730994
2.221E9 0.008319198136724588 0.043515962728430516 0.9916808018632755 -0.043515962728430516 0.9916808018632755 -0.043515962728430516 0.008319198136724588 0.043515962728430516
2.242E9 0.0084050899060659 0.04413504476885042 0.9915949100939341 -0.04413504476885042 0.9915949100939341 -0.04413504476885042 0.0084050899060659 0.04413504476885042
2.263E9 0.008508089154237763 0.04475630932549277 0.9914919108457623 -0.04475630932549277 0.9914919108457623 -0.04475630932549277 0.008508089154237763 0.04475630932549277
2.284E9 0.008627831968098248 0.04537827214784782 0.9913721680319019 -0.04537827214784782 0.9913721680319019 -0.04537827214784782 0.008627831968098248 0.04537827214784782
2.305E9 0.00876397653589029 0.04599964020123903 0.9912360234641099 -0.04599964020123903 0.9912360234641099 -0.04599964020123903 0.00876397653589029 0.04599964020123903
2.326E9 0.008916226044561472 0.04661925855567797 0.9910837739554387 -0.04661925855567797 0.9910837739554387 -0.04661925855567797 0.008916226044561472 0.04661925855567797
2.347E9 0.009084339484388854 0.04723606323798454 0.9909156605156111 -0.04723606323798454 0.9909156605156111 -0.04723606323798454 0.009084339484388854 0.04723606323798454
2.368E9 0.009268133649807858 0.04784903989275654 0.9907318663501923 -0.04784903989275654 0.9907318663501923 -0.04784903989275654 0.009268133649807858 0.04784903989275654
2.389E9 0.00946747859631599 0.04845718768924759 0.9905325214036839 -0.04845718768924759 0.9905325214036839 -0.04845718768924759 0.00946747859631599 0.04845718768924759
2.41E9 0.009682288008591531 0.049059487797836476 0.9903177119914087 -0.049059487797836476 0.9903177119914087 -0.049059487797836476 0.009682288008591531 0.049059487797836476
2.431E9 0.009912505327324824 0.04965487582102072 0.9900874946726754 -0.04965487582102072 0.9900874946726754 -0.04965487582102072 0.009912505327324824 0.04965487582102072
2.452E9 0.010158086036728051 0.05024221772742674 0.989841913963272 -0.05024221772742674 0.989841913963272 -0.05024221772742674 0.010158086036728051 0.05024221772742674
