!Murata Part Number: LQW18CNR65J00
!These Parameters are Measured in Series Mode Connection
!       o--[Z]--o
!Port1              Port2
!       o-------o
!
!Freq. Start=10[MHz] Stop=20[GHz], 401[Steps]
# Hz S RI R 50
!Freq.(Hz) S11(Real) S11(Imag) S21(Real) S21(Imag) S12(Real) S12(Imag) S22(Real) S22(Imag)
1.0E7 0.16290527658317594 0.32750641203022196 0.8370947234168241 -0.32750641203022196 0.8370947234168241 -0.32750641203022196 0.16290527658317594 0.32750641203022196
1.0191839480455115E7 0.16734173309576722 0.3318846411849044 0.8326582669042327 -0.3318846411849044 0.8326582669042327 -0.3318846411849044 0.16734173309576722 0.3318846411849044
1.0387359199536363E7 0.17189553811994868 0.33625940312808916 0.8281044618800515 -0.33625940312808916 0.8281044618800515 -0.33625940312808916 0.17189553811994868 0.33625940312808916
1.0586629758750336E7 0.1765680176132698 0.34062742478367636 0.8234319823867302 -0.34062742478367636 0.8234319823867302 -0.34062742478367636 0.1765680176132698 0.34062742478367636
1.0789723114019271E7 0.1813603950632423 0.34498531773449526 0.8186396049367578 -0.34498531773449514 0.8186396049367578 -0.34498531773449514 0.1813603950632423 0.34498531773449526
1.0996712601664074E7 0.18627378361853658 0.3493295805572456 0.8137262163814635 -0.3493295805572456 0.8137262163814635 -0.3493295805572456 0.18627378361853658 0.3493295805572456
1.1207672964885822E7 0.19130917815077697 0.3536566016881751 0.808690821849223 -0.3536566016881751 0.808690821849223 -0.3536566016881751 0.19130917815077697 0.3536566016881751
1.1422680380755277E7 0.19646744728207666 0.3579626628406259 0.8035325527179233 -0.3579626628406259 0.8035325527179233 -0.3579626628406259 0.19646744728207666 0.3579626628406259
1.1641812487720173E7 0.20174932541638832 0.36224394299346474 0.7982506745836117 -0.36224394299346474 0.7982506745836117 -0.36224394299346474 0.20174932541638832 0.36224394299346474
1.1865148413640184E7 0.2071554048155821 0.3664965229669164 0.7928445951844179 -0.3664965229669164 0.7928445951844179 -0.3664965229669164 0.2071554048155821 0.3664965229669164
1.2092768804359745E7 0.21268612776388282 0.37071639059948147 0.7873138722361172 -0.37071639059948147 0.7873138722361172 -0.37071639059948147 0.21268612776388282 0.37071639059948147
1.2324755852828966E7 0.21834177886684475 0.37489944653641266 0.7816582211331551 -0.37489944653641266 0.7816582211331551 -0.37489944653641266 0.21834177886684475 0.37489944653641266
1.2561193328783253E7 0.22412247753337983 0.37904151063667146 0.77587752246662 -0.37904151063667146 0.77587752246662 -0.37904151063667146 0.22412247753337983 0.37904151063667146
1.280216660899226E7 0.23002817069142434 0.3831383290013683 0.7699718293085759 -0.3831383290013684 0.7699718293085759 -0.3831383290013684 0.23002817069142434 0.3831383290013683
1.3047762708089152E7 0.23605862578960576 0.38718558162246053 0.7639413742103942 -0.38718558162246053 0.7639413742103942 -0.38718558162246053 0.23605862578960576 0.38718558162246053
1.3298070309991302E7 0.24221342413867622 0.39117889064592026 0.7577865758613237 -0.39117889064592026 0.7577865758613237 -0.39117889064592026 0.24221342413867622 0.39117889064592026
1.3553179799923737E7 0.2484919546474976 0.3951138292387545 0.7515080453525024 -0.39511382923875454 0.7515080453525024 -0.39511382923875454 0.2484919546474976 0.3951138292387545
1.3813183297056952E7 0.2548934080089279 0.39898593104416724 0.7451065919910722 -0.3989859310441673 0.7451065919910722 -0.3989859310441673 0.2548934080089279 0.39898593104416724
1.4078174687770821E7 0.2614167713910321 0.40279070020385715 0.738583228608968 -0.40279070020385715 0.738583228608968 -0.40279070020385715 0.2614167713910321 0.40279070020385715
1.4348249659556655E7 0.26806082368859546 0.40652362192099034 0.7319391763114046 -0.40652362192099034 0.7319391763114046 -0.40652362192099034 0.26806082368859546 0.40652362192099034
1.4623505735569622E7 0.2748241313888944 0.4101801735318144 0.7251758686111056 -0.41018017353181446 0.7251758686111056 -0.41018017353181446 0.2748241313888944 0.4101801735318144
1.490404230984403E7 0.28170504510407585 0.4137558360482718 0.7182949548959243 -0.4137558360482718 0.7182949548959243 -0.4137558360482718 0.28170504510407585 0.4137558360482718
1.5189960683184188E7 0.2887016968202706 0.41724610612837576 0.7112983031797294 -0.41724610612837576 0.7112983031797294 -0.41724610612837576 0.2887016968202706 0.41724610612837576
1.548136409974376E7 0.29581199791071555 0.4206465084256087 0.7041880020892846 -0.4206465084256087 0.7041880020892846 -0.4206465084256087 0.29581199791071555 0.4206465084256087
1.5778357784306893E7 0.3030336379566605 0.4239526082632633 0.6969663620433396 -0.4239526082632633 0.6969663620433396 -0.4239526082632633 0.3030336379566605 0.4239526082632633
1.608104898028453E7 0.3103640844157216 0.4271600245745542 0.6896359155842784 -0.42716002457455415 0.6896359155842784 -0.42716002457455415 0.3103640844157216 0.4271600245745542
1.638954698843964E7 0.3178005831725836 0.4302644430445532 0.6821994168274166 -0.4302644430445532 0.6821994168274166 -0.4302644430445532 0.3178005831725836 0.4302644430445532
1.6703963206355339E7 0.3253401600016238 0.43326162938563634 0.6746598399983764 -0.43326162938563634 0.6746598399983764 -0.43326162938563634 0.3253401600016238 0.43326162938563634
1.7024411168660197E7 0.3329796229651126 0.43614744267424044 0.6670203770348875 -0.43614744267424044 0.6670203770348875 -0.43614744267424044 0.3329796229651126 0.43614744267424044
1.7351006588025205E7 0.34071556576423023 0.43891784867340305 0.6592844342357697 -0.4389178486734031 0.6592844342357697 -0.4389178486734031 0.34071556576423023 0.43891784867340305
1.768386739694721E7 0.3485443720532511 0.4415689330628609 0.6514556279467488 -0.4415689330628609 0.6514556279467488 -0.4415689330628609 0.3485443720532511 0.4415689330628609
1.8023113790333964E7 0.3564622207199727 0.4440969144964792 0.6435377792800273 -0.4440969144964792 0.6435377792800273 -0.4440969144964792 0.3564622207199727 0.4440969144964792
1.836886826890608E7 0.3644650921278709 0.4464981574055447 0.6355349078721292 -0.4464981574055447 0.6355349078721292 -0.4464981574055447 0.3644650921278709 0.4464981574055447
1.872125568343162E7 0.37254877530764474 0.44876918446600605 0.6274512246923553 -0.448769184466006 0.6274512246923553 -0.448769184466006 0.37254877530764474 0.44876918446600605
1.9080403279809315E7 0.3807088760778505 0.45090668864815153 0.6192911239221496 -0.4509066886481516 0.6192911239221496 -0.4509066886481516 0.3807088760778505 0.45090668864815153
1.9446440745016586E7 0.3889408260663326 0.4529075447684818 0.6110591739336673 -0.4529075447684818 0.6110591739336673 -0.4529075447684818 0.3889408260663326 0.4529075447684818
1.9819500253939107E7 0.39723989259623993 0.45476882046568445 0.6027601074037601 -0.4547688204656844 0.6027601074037601 -0.4547688204656844 0.39723989259623993 0.45476882046568445
2.0199716517098684E7 0.40560118939265666 0.4564877865256542 0.5943988106073432 -0.4564877865256542 0.5943988106073432 -0.4564877865256542 0.40560118939265666 0.4564877865256542
2.0587226829296768E7 0.4140196880584358 0.45806192648439786 0.5859803119415643 -0.458061926484398 0.5859803119415643 -0.458061926484398 0.4140196880584358 0.45806192648439786
2.0982171119191162E7 0.4224902302607409 0.45948894544239893 0.5775097697392592 -0.45948894544239893 0.5775097697392592 -0.45948894544239893 0.4224902302607409 0.45948894544239893
2.138469199982376E7 0.43100754056324714 0.4607667780295438 0.5689924594367529 -0.4607667780295439 0.5689924594367529 -0.4607667780295439 0.43100754056324714 0.4607667780295438
2.1794934820117645E7 0.43956623983297904 0.46189359546596837 0.560433760167021 -0.46189359546596837 0.560433760167021 -0.46189359546596837 0.43956623983297904 0.46189359546596837
2.22130477173621E7 0.4481608591454837 0.4628678116711017 0.5518391408545164 -0.4628678116711017 0.5518391408545164 -0.4628678116711017 0.4481608591454837 0.4628678116711017
2.263918167070445E7 0.4567858541075247 0.463688088380678 0.5432141458924753 -0.4636880883806781 0.5432141458924753 -0.4636880883806781 0.4567858541075247 0.463688088380678
2.307349055566814E7 0.46543561951281553 0.46435333923945776 0.5345643804871846 -0.46435333923945776 0.5345643804871846 -0.46435333923945776 0.46543561951281553 0.46435333923945776
2.3516131199716687E7 0.47410450424352923 0.46486273284574264 0.5258954957564709 -0.46486273284574264 0.5258954957564709 -0.46486273284574264 0.47410450424352923 0.46486273284574264
2.396726343888349E7 0.48278682632848113 0.46521569473237884 0.5172131736715189 -0.46521569473237884 0.5172131736715189 -0.46521569473237884 0.48278682632848113 0.46521569473237884
2.4427050175488118E7 0.49147688806801276 0.4654119082776904 0.5085231119319873 -0.4654119082776904 0.5085231119319873 -0.4654119082776904 0.49147688806801276 0.4654119082776904
2.4895657436959792E7 0.5001689911356946 0.46545131454855776 0.4998310088643054 -0.46545131454855765 0.4998310088643054 -0.46545131454855765 0.5001689911356946 0.46545131454855776
2.5373254435789287E7 0.5088574515680279 0.46533411108653655 0.4911425484319721 -0.46533411108653655 0.4911425484319721 -0.46533411108653655 0.5088574515680279 0.46533411108653655
2.586001363063102E7 0.5175366145553463 0.4650607496563709 0.4824633854446537 -0.46506074965637084 0.4824633854446537 -0.46506074965637084 0.5175366145553463 0.4650607496563709
2.635611078857727E7 0.526200868950017 0.46463193298438904 0.47379913104998295 -0.46463193298438904 0.47379913104998295 -0.46463193298438904 0.526200868950017 0.46463193298438904
2.6861725048627086E7 0.5348446614118199 0.464048610521969 0.4651553385881801 -0.46404861052196894 0.4651553385881801 -0.46404861052196894 0.5348446614118199 0.464048610521969
2.737703898637277E7 0.5434625101149262 0.4633119732764224 0.45653748988507376 -0.46331197327642243 0.45653748988507376 -0.46331197327642243 0.5434625101149262 0.4633119732764224
2.7902238679927293E7 0.5520490179461629 0.4624234477581916 0.447950982053837 -0.4624234477581916 0.447950982053837 -0.4624234477581916 0.5520490179461629 0.4624234477581916
2.843751377711649E7 0.5605988851301208 0.4613846890990984 0.43940111486987926 -0.46138468909909847 0.43940111486987926 -0.46138468909909847 0.5605988851301208 0.4613846890990984
2.898305756396021E7 0.5691069212230531 0.46019757340147704 0.43089307877694705 -0.46019757340147704 0.43089307877694705 -0.46019757340147704 0.5691069212230531 0.46019757340147704
2.95390670344673E7 0.5775680564243296 0.458864189382309 0.4224319435756703 -0.45886418938230894 0.4224319435756703 -0.45886418938230894 0.5775680564243296 0.458864189382309
3.0105742961769406E7 0.5859773521613115 0.4573868293799304 0.41402264783868853 -0.4573868293799304 0.41402264783868853 -0.4573868293799304 0.5859773521613115 0.4573868293799304
3.068328997061952E7 0.5943300109108361 0.45576797979348227 0.40566998908916385 -0.45576797979348227 0.40566998908916385 -0.45576797979348227 0.5943300109108361 0.45576797979348227
3.1271916611281253E7 0.6026213852278971 0.4540103110270256 0.3973786147721029 -0.4540103110270256 0.3973786147721029 -0.4540103110270256 0.6026213852278971 0.4540103110270256
3.187183543483565E7 0.6108469859594895 0.45211666701115 0.3891530140405105 -0.45211666701115 0.3891530140405105 -0.45211666701115 0.6108469859594895 0.45211666701115
3.2483263069932636E7 0.6190024896288544 0.4500900543750069 0.3809975103711456 -0.4500900543750069 0.3809975103711456 -0.4500900543750069 0.6190024896288544 0.4500900543750069
3.310642030101491E7 0.6270837449824245 0.44793363134102165 0.37291625501757536 -0.44793363134102165 0.37291625501757536 -0.44793363134102165 0.6270837449824245 0.44793363134102165
3.3741532148042455E7 0.63508677869852 0.44565069641314853 0.3649132213014801 -0.4456506964131485 0.3649132213014801 -0.4456506964131485 0.63508677869852 0.44565069641314853
3.438882794774647E7 0.6430078002632401 0.4432446769274729 0.35699219973675994 -0.44324467692747294 0.35699219973675994 -0.44324467692747294 0.6430078002632401 0.4432446769274729
3.504854143644208E7 0.6508432060249493 0.44071911753132703 0.3491567939750508 -0.44071911753132703 0.3491567939750508 -0.44071911753132703 0.6508432060249493 0.44071911753132703
3.572091083442975E7 0.6585895824442158 0.43807766865390796 0.34141041755578405 -0.438077668653908 0.34141041755578405 -0.438077668653908 0.6585895824442158 0.43807766865390796
3.640617893201581E7 0.6662437085609921 0.43532407502779424 0.33375629143900776 -0.43532407502779424 0.33375629143900776 -0.43532407502779424 0.6662437085609921 0.43532407502779424
3.7104593177183196E7 0.6738025577052003 0.432462164316782 0.3261974422947997 -0.432462164316782 0.3261974422947997 -0.432462164316782 0.6738025577052003 0.432462164316782
3.781640576494413E7 0.6812632984806722 0.42949583590122514 0.3187367015193276 -0.4294958359012252 0.3187367015193276 -0.4294958359012252 0.6812632984806722 0.42949583590122514
3.85418737284068E7 0.6886232950556067 0.42642904986761504 0.3113767049443934 -0.4264290498676151 0.3113767049443934 -0.4264290498676151 0.6886232950556067 0.42642904986761504
3.928125903158923E7 0.6958801067953193 0.4232658162445726 0.30411989320468064 -0.4232658162445727 0.30411989320468064 -0.4232658162445727 0.6958801067953193 0.4232658162445726
4.003482866401353E7 0.7030314872751362 0.4200101845228074 0.29696851272486374 -0.4200101845228074 0.29696851272486374 -0.4200101845228074 0.7030314872751362 0.4200101845228074
4.080285473711493E7 0.7100753827127746 0.41666623349199483 0.28992461728722535 -0.41666623349199483 0.28992461728722535 -0.41666623349199483 0.7100753827127746 0.41666623349199483
4.158561458250031E7 0.7170099298605674 0.41323806142300634 0.28299007013943256 -0.41323806142300634 0.28299007013943256 -0.41323806142300634 0.7170099298605674 0.41323806142300634
4.2383390852091655E7 0.7238334533983959 0.40972977661952786 0.2761665466016041 -0.40972977661952775 0.2761665466016041 -0.40972977661952775 0.7238334533983959 0.40972977661952786
4.319647162019081E7 0.7305444628682815 0.40614548835889036 0.26945553713171844 -0.40614548835889036 0.26945553713171844 -0.40614548835889036 0.7305444628682815 0.40614548835889036
4.402515048750197E7 0.7371416491912658 0.4024892982379385 0.2628583508087343 -0.4024892982379385 0.2628583508087343 -0.4024892982379385 0.7371416491912658 0.4024892982379385
4.486972668715004E7 0.7436238808065535 0.39876529193600363 0.2563761191934464 -0.39876529193600363 0.2563761191934464 -0.39876529193600363 0.7436238808065535 0.39876529193600363
4.573050519273264E7 0.7499901994719278 0.3949775314035714 0.25000980052807215 -0.3949775314035714 0.25000980052807215 -0.3949775314035714 0.7499901994719278 0.3949775314035714
4.6607796828445025E7 0.7562398157632306 0.39113004748202723 0.24376018423676934 -0.39113004748202723 0.24376018423676934 -0.39113004748202723 0.7562398157632306 0.39113004748202723
4.750191838131767E7 0.7623721043092887 0.3872268329569611 0.23762789569071122 -0.387226832956961 0.23762789569071122 -0.387226832956961 0.7623721043092887 0.3872268329569611
4.8413192715607E7 0.7683865987970805 0.3832718360448991 0.23161340120291954 -0.3832718360448991 0.23161340120291954 -0.3832718360448991 0.7683865987970805 0.3832718360448991
4.934194888938056E7 0.7742829867802367 0.3792689543110133 0.2257170132197634 -0.3792689543110133 0.2257170132197634 -0.3792689543110133 0.7742829867802367 0.3792689543110133
5.0288522273338735E7 0.7800611043221963 0.37522202901332247 0.21993889567780367 -0.37522202901332247 0.21993889567780367 -0.37522202901332247 0.7800611043221963 0.37522202901332247
5.125325467191602E7 0.7857209305035009 0.37113483986713813 0.21427906949649916 -0.37113483986713813 0.21427906949649916 -0.37113483986713813 0.7857209305035009 0.37113483986713813
5.223649444670544E7 0.7912625818208756 0.3670111002219992 0.20873741817912428 -0.3670111002219991 0.20873741817912428 -0.3670111002219991 0.7912625818208756 0.3670111002219992
5.32385966422507E7 0.7966863065039117 0.3628544526420712 0.20331369349608827 -0.3628544526420713 0.20331369349608827 -0.3628544526420713 0.7966863065039117 0.3628544526420712
5.425992311425159E7 0.8019924787733635 0.3586684648799358 0.19800752122663645 -0.3586684648799358 0.19800752122663645 -0.3586684648799358 0.8019924787733635 0.3586684648799358
5.530084266022885E7 0.8071815930633324 0.3544566262328382 0.19281840693666763 -0.3544566262328382 0.19281840693666763 -0.3544566262328382 0.8071815930633324 0.3544566262328382
5.63617311526957E7 0.8122542582279184 0.3502223442697889 0.18774574177208161 -0.3502223442697889 0.18774574177208161 -0.3502223442697889 0.8122542582279184 0.3502223442697889
5.744297167488412E7 0.8172111917513227 0.34596894191738486 0.1827888082486772 -0.34596894191738486 0.1827888082486772 -0.34596894191738486 0.8172111917513227 0.34596894191738486
5.8544954659074895E7 0.8220532139788527 0.34169965489183207 0.17794678602114736 -0.34169965489183207 0.17794678602114736 -0.34169965489183207 0.8220532139788527 0.34169965489183207
5.9668078027581416E7 0.8267812423848462 0.3374176294643711 0.17321875761515373 -0.33741762946437115 0.17321875761515373 -0.33741762946437115 0.8267812423848462 0.3374176294643711
6.0812747336438075E7 0.8313962858921844 0.3331259205471328 0.16860371410781563 -0.3331259205471328 0.16860371410781563 -0.3331259205471328 0.8313962858921844 0.3331259205471328
6.197937592184514E7 0.8358994392567869 0.32882749008635165 0.1641005607432132 -0.32882749008635165 0.1641005607432132 -0.32882749008635165 0.8358994392567869 0.32882749008635165
6.3168385049423054E7 0.8402918775293189 0.32452520574983007 0.15970812247068114 -0.32452520574983007 0.15970812247068114 -0.32452520574983007 0.8402918775293189 0.32452520574983007
6.438020406633007E7 0.8445748506052272 0.3202218398955664 0.1554251493947728 -0.3202218398955664 0.1554251493947728 -0.3202218398955664 0.8445748506052272 0.3202218398955664
6.561527055629799E7 0.848749677873199 0.31592006880852297 0.15125032212680106 -0.31592006880852297 0.15125032212680106 -0.31592006880852297 0.848749677873199 0.31592006880852297
6.6874030497642204E7 0.8528177429711838 0.311622472192599 0.14718225702881624 -0.31162247219259903 0.14718225702881624 -0.31162247219259903 0.8528177429711838 0.311622472192599
6.815693842430294E7 0.8567804886582189 0.30733153290499643 0.1432195113417811 -0.30733153290499643 0.1432195113417811 -0.30733153290499643 0.8567804886582189 0.30733153290499643
6.946445758997591E7 0.8606394118094639 0.30304963692029857 0.13936058819053623 -0.30304963692029857 0.13936058819053623 -0.30304963692029857 0.8606394118094639 0.30304963692029857
7.079706013539167E7 0.8643960585410575 0.29877907351173777 0.13560394145894247 -0.29877907351173777 0.13560394145894247 -0.29877907351173777 0.8643960585410575 0.29877907351173777
7.215522725880398E7 0.8680520194706706 0.2945220356372902 0.13194798052932957 -0.2945220356372902 0.13194798052932957 -0.2945220356372902 0.8680520194706706 0.2945220356372902
7.353944938974898E7 0.8716089251189162 0.2902806205184068 0.1283910748810839 -0.2902806205184068 0.1283910748810839 -0.2902806205184068 0.8716089251189162 0.2902806205184068
7.495022636613746E7 0.8750684414561166 0.28605683039937696 0.12493155854388326 -0.28605683039937696 0.12493155854388326 -0.28605683039937696 0.8750684414561166 0.28605683039937696
7.638806761474478E7 0.8784322655982758 0.2818525734755055 0.12156773440172401 -0.2818525734755055 0.12156773440172401 -0.2818525734755055 0.8784322655982758 0.2818525734755055
7.785349233516307E7 0.8817021216554978 0.2776696649784873 0.11829787834450223 -0.2776696649784873 0.11829787834450223 -0.2776696649784873 0.8817021216554978 0.2776696649784873
7.934702968728249E7 0.8848797567355002 0.2735098284075687 0.11512024326449975 -0.27350982840756866 0.11512024326449975 -0.27350982840756866 0.8848797567355002 0.2735098284075687
