!Murata Part Number: LQW18AN10NG80
!These Parameters are Measured in Series Mode Connection
!       o--[Z]--o
!Port1              Port2
!       o-------o
!
!Freq. Start=50[MHz] Stop=20[GHz], 401[Steps]
# Hz S RI R 50
!Freq.(Hz) S11(Real) S11(Imag) S21(Real) S21(Imag) S12(Real) S12(Imag) S22(Real) S22(Imag)
5.0E7 0.0019484366720531326 0.030763979478600195 0.9980515633279469 -0.030763979478600198 0.9980515633279469 -0.030763979478600198 0.0019484366720531326 0.030763979478600195
5.0754570186123446E7 0.001986441890287396 0.03121893196992843 0.9980135581097126 -0.03121893196992843 0.9980135581097126 -0.03121893196992843 0.001986441890287396 0.03121893196992843
5.152052789556263E7 0.002025350994328404 0.031680572568274 0.9979746490056716 -0.031680572568274 0.9979746490056716 -0.031680572568274 0.002025350994328404 0.031680572568274
5.229804498202928E7 0.0020651874993186776 0.03214900161515614 0.9979348125006813 -0.03214900161515614 0.9979348125006813 -0.03214900161515614 0.0020651874993186776 0.03214900161515614
5.308729589274893E7 0.0021059757332623765 0.03262432099132031 0.9978940242667377 -0.03262432099132031 0.9978940242667377 -0.03262432099132031 0.0021059757332623765 0.03262432099132031
5.388845770760058E7 0.0021477408669775292 0.033106634132571866 0.9978522591330227 -0.033106634132571866 0.9978522591330227 -0.033106634132571866 0.0021477408669775292 0.033106634132571866
5.470171017884717E7 0.002190508944651903 0.033596046045284454 0.9978094910553481 -0.033596046045284454 0.9978094910553481 -0.033596046045284454 0.002190508944651903 0.033596046045284454
5.5527235771465644E7 0.0022343069149945226 0.034092663321580105 0.9977656930850055 -0.0340926633215801 0.9977656930850055 -0.0340926633215801 0.0022343069149945226 0.034092663321580105
5.6365219704085544E7 0.002279162662975632 0.0345965941541795 0.9977208373370243 -0.0345965941541795 0.9977208373370243 -0.0345965941541795 0.002279162662975632 0.0345965941541795
5.721584999054556E7 0.0023251050421489398 0.03510794835092283 0.997674894957851 -0.03510794835092283 0.997674894957851 -0.03510794835092283 0.0023251050421489398 0.03510794835092283
5.807931748207712E7 0.0023721639075510066 0.035626837348962125 0.997627836092449 -0.035626837348962125 0.997627836092449 -0.035626837348962125 0.0023721639075510066 0.035626837348962125
5.8955815910124585E7 0.0024203701491739334 0.03615337422862771 0.997579629850826 -0.03615337422862771 0.997579629850826 -0.03615337422862771 0.0024203701491739334 0.03615337422862771
5.984554192981184E7 0.0024697557260089298 0.03668767372697276 0.9975302442739913 -0.036687673726972764 0.9975302442739913 -0.036687673726972764 0.0024697557260089298 0.03668767372697276
6.074869516406457E7 0.0025203537006597467 0.03722985225099966 0.9974796462993402 -0.03722985225099965 0.9974796462993402 -0.03722985225099965 0.0025203537006597467 0.03722985225099966
6.166547824839868E7 0.0025721982745267507 0.037780027890574726 0.9974278017254732 -0.03778002789057473 0.9974278017254732 -0.03778002789057473 0.0025721982745267507 0.037780027890574726
6.2596096876384385E7 0.0026253248235639775 0.038338320431036556 0.9973746751764361 -0.03833832043103655 0.9973746751764361 -0.03833832043103655 0.0026253248235639775 0.038338320431036556
6.354075984579668E7 0.0026797699346134455 0.03890485136550511 0.9973202300653865 -0.03890485136550511 0.9973202300653865 -0.03890485136550511 0.0026797699346134455 0.03890485136550511
6.449967910546205E7 0.0027355714423228463 0.03947974390689882 0.9972644285576773 -0.03947974390689882 0.9972644285576773 -0.03947974390689882 0.0027355714423228463 0.03947974390689882
6.547306980281226E7 0.002792768466654694 0.04006312299966672 0.9972072315333453 -0.04006312299966672 0.9972072315333453 -0.04006312299966672 0.002792768466654694 0.04006312299966672
6.646115033215589E7 0.0028514014509970435 0.04065511533124356 0.997148598549003 -0.04065511533124356 0.997148598549003 -0.04065511533124356 0.0028514014509970435 0.04065511533124356
6.746414238367817E7 0.002911512200887896 0.04125584934323512 0.9970884877991121 -0.04125584934323512 0.9970884877991121 -0.04125584934323512 0.002911512200887896 0.04125584934323512
6.848227099318038E7 0.0029731439233674933 0.04186545524234092 0.9970268560766327 -0.04186545524234092 0.9970268560766327 -0.04186545524234092 0.0029731439233674933 0.04186545524234092
6.951576459256999E7 0.0030363412669747766 0.04248406501102139 0.9969636587330254 -0.04248406501102139 0.9969636587330254 -0.04248406501102139 0.0030363412669747766 0.04248406501102139
7.056485506111258E7 0.0031011503624063363 0.043111812417915764 0.9968988496375936 -0.043111812417915764 0.9968988496375936 -0.043111812417915764 0.0031011503624063363 0.043111812417915764
7.162977777745734E7 0.0031676188638582107 0.04374883302801609 0.9968323811361419 -0.04374883302801609 0.9968323811361419 -0.04374883302801609 0.0031676188638582107 0.04374883302801609
7.271077167244768E7 0.0032357959910729564 0.044395264212602446 0.9967642040089272 -0.044395264212602446 0.9967642040089272 -0.044395264212602446 0.0032357959910729564 0.044395264212602446
7.380807928272885E7 0.003305732572116346 0.04505124515894292 0.9966942674278836 -0.04505124515894292 0.9966942674278836 -0.04505124515894292 0.003305732572116346 0.04505124515894292
7.492194680516452E7 0.0033774810869099912 0.045716916879761184 0.99662251891309 -0.04571691687976118 0.99662251891309 -0.04571691687976118 0.0033774810869099912 0.045716916879761184
7.60526241520746E7 0.003451095711548039 0.0463924222224726 0.9965489042884521 -0.0463924222224726 0.9965489042884521 -0.0463924222224726 0.003451095711548039 0.0463924222224726
7.720036500730675E7 0.003526632363427937 0.047077905878189476 0.9964733676365722 -0.047077905878189476 0.9964733676365722 -0.047077905878189476 0.003526632363427937 0.047077905878189476
7.836542688315398E7 0.003604148747226927 0.04777351439049336 0.9963958512527731 -0.04777351439049337 0.9963958512527731 -0.04777351439049337 0.003604148747226927 0.04777351439049336
7.954807117813127E7 0.003683704401757617 0.0484793961639716 0.9963162955982425 -0.04847939616397161 0.9963162955982425 -0.04847939616397161 0.003683704401757617 0.0484793961639716
8.074856323562416E7 0.0037653607477375127 0.049195701472512905 0.9962346392522624 -0.049195701472512905 0.9962346392522624 -0.049195701472512905 0.0037653607477375127 0.049195701472512905
8.196717240342227E7 0.003849181136508882 0.04992258246735553 0.9961508188634909 -0.04992258246735552 0.9961508188634909 -0.04992258246735552 0.003849181136508882 0.04992258246735553
8.320417209415154E7 0.003935230899746744 0.05066019318487967 0.9960647691002533 -0.05066019318487967 0.9960647691002533 -0.05066019318487967 0.003935230899746744 0.05066019318487967
8.445983984661816E7 0.00402357740019394 0.051408689554132705 0.9959764225998061 -0.05140868955413272 0.9959764225998061 -0.05140868955413272 0.00402357740019394 0.051408689554132705
8.573445738807854E7 0.004114290083463684 0.052168229404076116 0.9958857099165364 -0.0521682294040761 0.9958857099165364 -0.0521682294040761 0.004114290083463684 0.052168229404076116
8.702831069744885E7 0.004207440530950804 0.05293897247053788 0.9957925594690491 -0.05293897247053788 0.9957925594690491 -0.05293897247053788 0.004207440530950804 0.05293897247053788
8.834169006946853E7 0.004303102513894189 0.053721080402855004 0.9956968974861058 -0.053721080402855004 0.9956968974861058 -0.053721080402855004 0.004303102513894189 0.053721080402855004
8.96748901798321E7 0.004401352048633702 0.05451471677018615 0.9955986479513663 -0.05451471677018615 0.9955986479513663 -0.05451471677018615 0.004401352048633702 0.05451471677018615
9.1028210151304E7 0.004502267453105855 0.055320047067474294 0.9954977325468941 -0.055320047067474294 0.9954977325468941 -0.055320047067474294 0.004502267453105855 0.055320047067474294
9.240195362083109E7 0.004605929404623121 0.0561372387210352 0.9953940705953768 -0.0561372387210352 0.9953940705953768 -0.0561372387210352 0.004605929404623121 0.0561372387210352
9.379642880766791E7 0.004712420998982677 0.0569664610937467 0.9952875790010172 -0.0569664610937467 0.9952875790010172 -0.0569664610937467 0.004712420998982677 0.0569664610937467
9.521194858253023E7 0.00482182781095092 0.057807885489810924 0.995178172189049 -0.05780788548981093 0.995178172189049 -0.05780788548981093 0.00482182781095092 0.057807885489810924
9.664883053779216E7 0.004934237956170704 0.05866168515905928 0.9950657620438292 -0.058661685159059264 0.9950657620438292 -0.058661685159059264 0.004934237956170704 0.05866168515905928
9.810739705874248E7 0.005049742154538791 0.059528035300767765 0.9949502578454613 -0.059528035300767765 0.9949502578454613 -0.059528035300767765 0.005049742154538791 0.059528035300767765
9.958797539591652E7 0.005168433795101526 0.06040711306694829 0.9948315662048984 -0.06040711306694829 0.9948315662048984 -0.06040711306694829 0.005168433795101526 0.06040711306694829
1.0109089773851961E8 0.005290409002517226 0.06129909756507881 0.9947095909974826 -0.06129909756507881 0.9947095909974826 -0.06129909756507881 0.005290409002517226 0.06129909756507881
1.0261650128895843E8 0.005415766705134139 0.0622041698602332 0.994584233294866 -0.0622041698602332 0.994584233294866 -0.0622041698602332 0.005415766705134139 0.0622041698602332
1.0416512833849736E8 0.005544608704733249 0.06312251297656891 0.9944553912952667 -0.06312251297656893 0.9944553912952667 -0.06312251297656893 0.005544608704733249 0.06312251297656891
1.0573712634405641E8 0.005677039747985749 0.0640543118981294 0.9943229602520142 -0.0640543118981294 0.9943229602520142 -0.0640543118981294 0.005677039747985749 0.0640543118981294
1.0733284800616828E8 0.005813167599675141 0.06499975356891395 0.9941868324003247 -0.06499975356891395 0.9941868324003247 -0.06499975356891395 0.005813167599675141 0.06499975356891395
1.0895265134811176E8 0.0059531031177344935 0.06595902689216715 0.9940468968822653 -0.06595902689216716 0.9940468968822653 -0.06595902689216716 0.0059531031177344935 0.06595902689216715
1.1059689979623953E8 0.0060969603301497454 0.06693232272883667 0.9939030396698502 -0.06693232272883667 0.9939030396698502 -0.06693232272883667 0.0060969603301497454 0.06693232272883667
1.1226596226151802E8 0.00624485651378028 0.06791983389514575 0.9937551434862196 -0.06791983389514575 0.9937551434862196 -0.06791983389514575 0.00624485651378028 0.06791983389514575
1.1396021322229806E8 0.006396912275148476 0.06892175515922459 0.9936030877248514 -0.06892175515922459 0.9936030877248514 -0.06892175515922459 0.006396912275148476 0.06892175515922459
1.1568003280833441E8 0.006553251633250431 0.06993828323674231 0.9934467483667497 -0.06993828323674231 0.9934467483667497 -0.06993828323674231 0.006553251633250431 0.06993828323674231
1.1742580688607343E8 0.006714002104440319 0.07096961678547786 0.9932859978955596 -0.07096961678547785 0.9932859978955596 -0.07096961678547785 0.006714002104440319 0.07096961678547786
1.1919792714522783E8 0.006879294789441659 0.07201595639876672 0.9931207052105583 -0.0720159563987667 0.9931207052105583 -0.0720159563987667 0.006879294789441659 0.07201595639876672
1.2099679118665792E8 0.007049264462538995 0.07307750459775626 0.9929507355374608 -0.07307750459775626 0.9929507355374608 -0.07307750459775626 0.007049264462538995 0.07307750459775626
1.2282280261157903E8 0.007224049663004259 0.07415446582240097 0.9927759503369958 -0.07415446582240097 0.9927759503369958 -0.07415446582240097 0.007224049663004259 0.07415446582240097
1.2467637111211549E8 0.007403792788812577 0.07524704642112427 0.9925962072111875 -0.07524704642112427 0.9925962072111875 -0.07524704642112427 0.007403792788812577 0.07524704642112427
1.265579125632208E8 0.0075886401927030165 0.07635545463907252 0.992411359807297 -0.07635545463907252 0.992411359807297 -0.07635545463907252 0.0075886401927030165 0.07635545463907252
1.284678491159853E8 0.0077787422806403035 0.07747990060488132 0.9922212577193599 -0.07747990060488132 0.9922212577193599 -0.07747990060488132 0.0077787422806403035 0.07747990060488132
1.3040660929235186E8 0.007974253612734435 0.0786205963158731 0.9920257463872657 -0.0786205963158731 0.9920257463872657 -0.0786205963158731 0.007974253612734435 0.0786205963158731
1.3237462808126101E8 0.008175333006675584 0.07977775562159911 0.9918246669933243 -0.07977775562159911 0.9918246669933243 -0.07977775562159911 0.008175333006675584 0.07977775562159911
1.3437234703624701E8 0.00838214364374273 0.08095159420563741 0.9916178563562574 -0.08095159420563741 0.9916178563562574 -0.08095159420563741 0.00838214364374273 0.08095159420563741
1.364002143745067E8 0.00859485317744491 0.08214232956555202 0.9914051468225552 -0.08214232956555202 0.9914051468225552 -0.08214232956555202 0.00859485317744491 0.08214232956555202
1.3845868507746372E8 0.00881363384485512 0.08335018099091755 0.9911863661551449 -0.08335018099091754 0.9911863661551449 -0.08335018099091754 0.00881363384485512 0.08335018099091755
1.405482209928499E8 0.009038662580697182 0.08457536953930475 0.9909613374193027 -0.08457536953930475 0.9909613374193027 -0.08457536953930475 0.009038662580697182 0.08457536953930475
1.426692909383278E8 0.009270121134247132 0.08581811801012197 0.9907298788657528 -0.08581811801012197 0.9907298788657528 -0.08581811801012197 0.009270121134247132 0.08581811801012197
1.4482237080667645E8 0.00950819618911103 0.08707865091619986 0.9904918038108889 -0.08707865091619986 0.9904918038108889 -0.08707865091619986 0.00950819618911103 0.08707865091619986
1.4700794367256513E8 0.009753079485941955 0.08835719445300229 0.9902469205140579 -0.08835719445300229 0.9902469205140579 -0.08835719445300229 0.009753079485941955 0.08835719445300229
1.492264999009378E8 0.010004967948159475 0.08965397646534069 0.9899950320518407 -0.0896539764653407 0.9899950320518407 -0.0896539764653407 0.010004967948159475 0.08965397646534069
1.5147853725703382E8 0.01026406381073535 0.09096922641146306 0.9897359361892647 -0.09096922641146306 0.9897359361892647 -0.09096922641146306 0.01026406381073535 0.09096922641146306
1.5376456101806876E8 0.010530574752109756 0.09230317532438252 0.9894694252478902 -0.09230317532438251 0.9894694252478902 -0.09230317532438251 0.010530574752109756 0.09230317532438252
1.5608508408660066E8 0.010804714029302474 0.09365605577030403 0.9891952859706977 -0.09365605577030404 0.9891952859706977 -0.09365605577030404 0.010804714029302474 0.09365605577030403
1.5844062710560706E8 0.011086700616283548 0.0950281018039996 0.9889132993837164 -0.0950281018039996 0.9889132993837164 -0.0950281018039996 0.011086700616283548 0.0950281018039996
1.6083171857529896E8 0.011376759345668045 0.0964195489209767 0.988623240654332 -0.0964195489209767 0.988623240654332 -0.0964195489209767 0.011376759345668045 0.0964195489209767
1.632588949716973E8 0.011675121053798922 0.09783063400627476 0.9883248789462011 -0.09783063400627477 0.9883248789462011 -0.09783063400627477 0.011675121053798922 0.09783063400627476
1.6572270086699936E8 0.01198202272928173 0.0992615952797178 0.9880179772707184 -0.0992615952797178 0.9880179772707184 -0.0992615952797178 0.01198202272928173 0.0992615952797178
1.6822368905176118E8 0.012297707665033707 0.10071267223744115 0.9877022923349662 -0.10071267223744115 0.9877022923349662 -0.10071267223744115 0.012297707665033707 0.10071267223744115
1.7076242065892437E8 0.01262242561390898 0.10218410558950283 0.987377574386091 -0.10218410558950283 0.987377574386091 -0.10218410558950283 0.01262242561390898 0.10218410558950283
1.7333946528971428E8 0.012956432947959456 0.10367613719337733 0.9870435670520403 -0.10367613719337733 0.9870435670520403 -0.10367613719337733 0.012956432947959456 0.10367613719337733
1.7595540114143828E8 0.013299992821389616 0.10518900998312357 0.9867000071786103 -0.10518900998312357 0.9867000071786103 -0.10518900998312357 0.013299992821389616 0.10518900998312357
1.786108151372127E8 0.013653375337260252 0.1067229678940039 0.9863466246627398 -0.1067229678940039 0.9863466246627398 -0.1067229678940039 0.013653375337260252 0.1067229678940039
1.8130630305764765E8 0.014016857717993774 0.1082782557823233 0.9859831422820062 -0.1082782557823233 0.9859831422820062 -0.1082782557823233 0.014016857717993774 0.1082782557823233
1.840424696745189E8 0.014390724479729522 0.10985511934024368 0.9856092755202704 -0.10985511934024371 0.9856092755202704 -0.10985511934024371 0.014390724479729522 0.10985511934024368
1.8681992888645732E8 0.01477526761057383 0.11145380500531878 0.9852247323894262 -0.11145380500531876 0.9852247323894262 -0.11145380500531876 0.01477526761057383 0.11145380500531878
1.8963930385668582E8 0.015170786752784302 0.11307455986447985 0.9848292132472156 -0.11307455986447985 0.9848292132472156 -0.11307455986447985 0.015170786752784302 0.11307455986447985
1.92501227152835E8 0.015577589388922014 0.11471763155219188 0.9844224106110779 -0.11471763155219188 0.9844224106110779 -0.11471763155219188 0.015577589388922014 0.11471763155219188
1.9540634088886917E8 0.015995991031999467 0.11638326814248498 0.9840040089680006 -0.116383268142485 0.9840040089680006 -0.116383268142485 0.015995991031999467 0.11638326814248498
1.983552968691535E8 0.016426315419643893 0.11807171803455324 0.9835736845803562 -0.11807171803455324 0.9835736845803562 -0.11807171803455324 0.016426315419643893 0.11807171803455324
2.0134875673469606E8 0.016868894712287995 0.11978322983159775 0.9831311052877119 -0.11978322983159777 0.9831311052877119 -0.11978322983159777 0.016868894712287995 0.11978322983159775
2.0438739211159652E8 0.017324069695390555 0.12151805221257793 0.9826759303046093 -0.1215180522125779 0.9826759303046093 -0.1215180522125779 0.017324069695390555 0.12151805221257793
2.074718847617352E8 0.01779218998567913 0.12327643379651818 0.9822078100143208 -0.12327643379651818 0.9822078100143208 -0.12327643379651818 0.01779218998567913 0.12327643379651818
2.106029267357361E8 0.018273614241395654 0.12505862299900553 0.9817263857586043 -0.12505862299900553 0.9817263857586043 -0.12505862299900553 0.018273614241395654 0.12505862299900553
2.1378122052823865E8 0.018768710376513106 0.12686486788049398 0.9812312896234868 -0.126864867880494 0.9812312896234868 -0.126864867880494 0.018768710376513106 0.12686486788049398
2.1700747923551247E8 0.019277855778877653 0.12869541598602113 0.9807221442211224 -0.12869541598602113 0.9807221442211224 -0.12869541598602113 0.019277855778877653 0.12869541598602113
2.2028242671545094E8 0.019801437532215506 0.1305505141759229 0.9801985624677845 -0.1305505141759229 0.9801985624677845 -0.1305505141759229 0.019801437532215506 0.1305505141759229
2.23606797749979E8 0.020339852641927447 0.1324304084471208 0.9796601473580725 -0.1324304084471208 0.9796601473580725 -0.1324304084471208 0.020339852641927447 0.1324304084471208
2.2698133820991236E8 0.02089350826457561 0.13433534374453696 0.9791064917354244 -0.13433534374453696 0.9791064917354244 -0.13433534374453696 0.02089350826457561 0.13433534374453696
2.3040680522230446E8 0.021462821940948573 0.1362655637621801 0.9785371780590514 -0.1362655637621801 0.9785371780590514 -0.1362655637621801 0.021462821940948573 0.1362655637621801
2.338839673403185E8 0.022048221832569454 0.13822131073343 0.9779517781674304 -0.13822131073342997 0.9779517781674304 -0.13822131073342997 0.022048221832569454 0.13822131073343
2.37413604715664E8 0.022650146961489287 0.14020282521003177 0.9773498530385107 -0.14020282521003177 0.9773498530385107 -0.14020282521003177 0.022650146961489287 0.14020282521003177
2.4099650927363476E8 0.023269047453184696 0.14221034582929964 0.9767309525468153 -0.14221034582929962 0.9767309525468153 -0.14221034582929962 0.023269047453184696 0.14221034582929964
2.446334848907889E8 0.023905384782352723 0.14424410906901472 0.9760946152176472 -0.14424410906901472 0.9760946152176472 -0.14424410906901472 0.023905384782352723 0.14424410906901472
