!Murata Part Number: LQW18ANR10J80
!These Parameters are Measured in Series Mode Connection
!       o--[Z]--o
!Port1              Port2
!       o-------o
!
!Freq. Start=50[MHz] Stop=20[GHz], 401[Steps]
# Hz S RI R 50
!Freq.(Hz) S11(Real) S11(Imag) S21(Real) S21(Imag) S12(Real) S12(Imag) S22(Real) S22(Imag)
5.0E7 0.09616491106838512 0.27541065239476326 0.9038350889316149 -0.27541065239476326 0.9038350889316149 -0.27541065239476326 0.09616491106838512 0.27541065239476326
5.0754570186123446E7 0.09851145659234482 0.27875085027799945 0.9014885434076552 -0.2787508502779994 0.9014885434076552 -0.2787508502779994 0.09851145659234482 0.27875085027799945
5.152052789556263E7 0.10091426460228267 0.28211295923836255 0.8990857353977173 -0.28211295923836255 0.8990857353977173 -0.28211295923836255 0.10091426460228267 0.28211295923836255
5.229804498202928E7 0.10337441244083724 0.28549629821127276 0.896625587559163 -0.28549629821127276 0.896625587559163 -0.28549629821127276 0.10337441244083724 0.28549629821127276
5.308729589274893E7 0.10589297925564317 0.28890014503023004 0.8941070207443568 -0.28890014503023004 0.8941070207443568 -0.28890014503023004 0.10589297925564317 0.28890014503023004
5.388845770760058E7 0.10847104472419314 0.2923237354563419 0.8915289552758069 -0.2923237354563419 0.8915289552758069 -0.2923237354563419 0.10847104472419314 0.2923237354563419
5.470171017884717E7 0.11110968770983895 0.29576626223300556 0.8888903122901611 -0.2957662622330056 0.8888903122901611 -0.2957662622330056 0.11110968770983895 0.29576626223300556
5.5527235771465644E7 0.11380998484804512 0.29922687416950977 0.8861900151519548 -0.29922687416950977 0.8861900151519548 -0.29922687416950977 0.11380998484804512 0.29922687416950977
5.6365219704085544E7 0.11657300906216485 0.3027046752574916 0.8834269909378352 -0.30270467525749156 0.8834269909378352 -0.30270467525749156 0.11657300906216485 0.3027046752574916
5.721584999054556E7 0.11939982800818133 0.30619872382435637 0.8806001719918187 -0.30619872382435637 0.8806001719918187 -0.30619872382435637 0.11939982800818133 0.30619872382435637
5.807931748207712E7 0.12229150244804797 0.3097080317279383 0.877708497551952 -0.30970803172793837 0.877708497551952 -0.30970803172793837 0.12229150244804797 0.3097080317279383
5.8955815910124585E7 0.12524908455146874 0.3132315635968412 0.8747509154485313 -0.3132315635968411 0.8747509154485313 -0.3132315635968411 0.12524908455146874 0.3132315635968412
5.984554192981184E7 0.12827361612618468 0.31676823612105465 0.8717263838738154 -0.31676823612105465 0.8717263838738154 -0.31676823612105465 0.12827361612618468 0.31676823612105465
6.074869516406457E7 0.13136612677707693 0.3203169173975966 0.8686338732229232 -0.3203169173975966 0.8686338732229232 -0.3203169173975966 0.13136612677707693 0.3203169173975966
6.166547824839868E7 0.13452763199466047 0.3238764263360675 0.8654723680053396 -0.3238764263360675 0.8654723680053396 -0.3238764263360675 0.13452763199466047 0.3238764263360675
6.2596096876384385E7 0.1377591311738196 0.32744553212913513 0.8622408688261803 -0.3274455321291351 0.8622408688261803 -0.3274455321291351 0.1377591311738196 0.32744553212913513
6.354075984579668E7 0.14106160556394148 0.3310229537930874 0.8589383944360586 -0.3310229537930874 0.8589383944360586 -0.3310229537930874 0.14106160556394148 0.3310229537930874
6.449967910546205E7 0.1444360161519163 0.33460735978368944 0.8555639838480836 -0.33460735978368944 0.8555639838480836 -0.33460735978368944 0.1444360161519163 0.33460735978368944
6.547306980281226E7 0.14788330147981232 0.33819736769267233 0.8521166985201877 -0.33819736769267233 0.8521166985201877 -0.33819736769267233 0.14788330147981232 0.33819736769267233
6.646115033215589E7 0.15140437539938853 0.3417915440302486 0.8485956246006114 -0.3417915440302486 0.8485956246006114 -0.3417915440302486 0.15140437539938853 0.3417915440302486
6.746414238367817E7 0.1550001247659738 0.3453884040990946 0.8449998752340263 -0.3453884040990945 0.8449998752340263 -0.3453884040990945 0.1550001247659738 0.3453884040990946
6.848227099318038E7 0.15867140707463556 0.3489864119652714 0.8413285929253644 -0.3489864119652714 0.8413285929253644 -0.3489864119652714 0.15867140707463556 0.3489864119652714
6.951576459256999E7 0.1624190480419577 0.35258398053155476 0.8375809519580423 -0.35258398053155476 0.8375809519580423 -0.35258398053155476 0.1624190480419577 0.35258398053155476
7.056485506111258E7 0.16624383913716623 0.35617947171861714 0.8337561608628337 -0.356179471718617 0.8337561608628337 -0.356179471718617 0.16624383913716623 0.35617947171861714
7.162977777745734E7 0.1701465350667718 0.35977119675946023 0.8298534649332282 -0.35977119675946023 0.8298534649332282 -0.35977119675946023 0.1701465350667718 0.35977119675946023
7.271077167244768E7 0.1741278512173354 0.36335741661240534 0.8258721487826646 -0.36335741661240534 0.8258721487826646 -0.36335741661240534 0.1741278512173354 0.36335741661240534
7.380807928272885E7 0.1781884610614134 0.3669363424978351 0.8218115389385865 -0.3669363424978351 0.8218115389385865 -0.3669363424978351 0.1781884610614134 0.3669363424978351
7.492194680516452E7 0.18232899353219809 0.37050613656373654 0.8176710064678019 -0.37050613656373654 0.8176710064678019 -0.37050613656373654 0.18232899353219809 0.37050613656373654
7.60526241520746E7 0.18655003037282303 0.37406491268490105 0.8134499696271771 -0.37406491268490105 0.8134499696271771 -0.37406491268490105 0.18655003037282303 0.37406491268490105
7.720036500730675E7 0.19085210346677228 0.3776107374004201 0.8091478965332277 -0.3776107374004201 0.8091478965332277 -0.3776107374004201 0.19085210346677228 0.3776107374004201
7.836542688315398E7 0.19523569215629247 0.3811416309938546 0.8047643078437076 -0.3811416309938546 0.8047643078437076 -0.3811416309938546 0.19523569215629247 0.3811416309938546
7.954807117813127E7 0.19970122055616146 0.384655568720148 0.8002987794438385 -0.384655568720148 0.8002987794438385 -0.384655568720148 0.19970122055616146 0.384655568720148
8.074856323562416E7 0.20424905487062325 0.38815048218301706 0.7957509451293768 -0.38815048218301706 0.7957509451293768 -0.38815048218301706 0.20424905487062325 0.38815048218301706
8.196717240342227E7 0.20887950072173656 0.39162426086616636 0.7911204992782633 -0.39162426086616636 0.7911204992782633 -0.39162426086616636 0.20887950072173656 0.39162426086616636
8.320417209415154E7 0.21359280049781298 0.395074753821246 0.7864071995021871 -0.395074753821246 0.7864071995021871 -0.395074753821246 0.21359280049781298 0.395074753821246
8.445983984661816E7 0.21838913073102495 0.39849977151499993 0.781610869268975 -0.39849977151499993 0.781610869268975 -0.39849977151499993 0.21838913073102495 0.39849977151499993
8.573445738807854E7 0.22326859951365724 0.4018970878375457 0.7767314004863428 -0.4018970878375457 0.7767314004863428 -0.4018970878375457 0.22326859951365724 0.4018970878375457
8.702831069744885E7 0.2282312439628302 0.4052644422731646 0.7717687560371698 -0.4052644422731646 0.7717687560371698 -0.4052644422731646 0.2282312439628302 0.4052644422731646
8.834169006946853E7 0.23327702774385473 0.4085995422343905 0.7667229722561452 -0.4085995422343905 0.7667229722561452 -0.4085995422343905 0.23327702774385473 0.4085995422343905
8.96748901798321E7 0.23840583866268053 0.4119000655595474 0.7615941613373194 -0.4119000655595474 0.7615941613373194 -0.4119000655595474 0.23840583866268053 0.4119000655595474
9.1028210151304E7 0.2436174863381496 0.41516366317321274 0.7563825136618504 -0.41516366317321274 0.7563825136618504 -0.41516366317321274 0.2436174863381496 0.41516366317321274
9.240195362083109E7 0.2489116999649855 0.4183879619083709 0.7510883000350145 -0.4183879619083709 0.7510883000350145 -0.4183879619083709 0.2489116999649855 0.4183879619083709
9.379642880766791E7 0.25428812617861807 0.42157056748827804 0.7457118738213819 -0.42157056748827804 0.7457118738213819 -0.42157056748827804 0.25428812617861807 0.42157056748827804
9.521194858253023E7 0.25974632703305656 0.42470906766528227 0.7402536729669434 -0.4247090676652822 0.7402536729669434 -0.4247090676652822 0.25974632703305656 0.42470906766528227
9.664883053779216E7 0.26528577810309145 0.4278010355130428 0.7347142218969085 -0.4278010355130428 0.7347142218969085 -0.4278010355130428 0.26528577810309145 0.4278010355130428
9.810739705874248E7 0.2709058667221012 0.43084403286776013 0.7290941332778988 -0.43084403286776013 0.7290941332778988 -0.43084403286776013 0.2709058667221012 0.43084403286776013
9.958797539591652E7 0.2766058903666913 0.43383561391318676 0.7233941096333086 -0.43383561391318676 0.7233941096333086 -0.43383561391318676 0.2766058903666913 0.43383561391318676
1.0109089773851961E8 0.282385055199257 0.43677332890332504 0.717614944800743 -0.43677332890332504 0.717614944800743 -0.43677332890332504 0.282385055199257 0.43677332890332504
1.0261650128895843E8 0.2882424747793831 0.43965472801584815 0.7117575252206169 -0.43965472801584826 0.7117575252206169 -0.43965472801584826 0.2882424747793831 0.43965472801584815
1.0416512833849736E8 0.294177168954716 0.44247736532840465 0.705822831045284 -0.44247736532840465 0.705822831045284 -0.44247736532840465 0.294177168954716 0.44247736532840465
1.0573712634405641E8 0.3001880629416258 0.44523880290909623 0.6998119370583743 -0.4452388029090963 0.6998119370583743 -0.4452388029090963 0.3001880629416258 0.44523880290909623
1.0733284800616828E8 0.3062739866055484 0.44793661501155 0.6937260133944515 -0.44793661501155 0.6937260133944515 -0.44793661501155 0.3062739866055484 0.44793661501155
1.0895265134811176E8 0.3124336739504317 0.45056839236415835 0.6875663260495682 -0.45056839236415835 0.6875663260495682 -0.45056839236415835 0.3124336739504317 0.45056839236415835
1.1059689979623953E8 0.31866576282613857 0.45313174654222993 0.6813342371738615 -0.45313174654223 0.6813342371738615 -0.45313174654223 0.31866576282613857 0.45313174654222993
1.1226596226151802E8 0.32496879486203234 0.45562431441099216 0.6750312051379677 -0.4556243144109921 0.6750312051379677 -0.4556243144109921 0.32496879486203234 0.45562431441099216
1.1396021322229806E8 0.3313412156342636 0.4580437626266231 0.6686587843657366 -0.4580437626266231 0.6686587843657366 -0.4580437626266231 0.3313412156342636 0.4580437626266231
1.1568003280833441E8 0.3377813750734895 0.460387792181761 0.6622186249265105 -0.460387792181761 0.6622186249265105 -0.460387792181761 0.3377813750734895 0.460387792181761
1.1742580688607343E8 0.3442875281189202 0.46265414298127117 0.65571247188108 -0.46265414298127117 0.65571247188108 -0.46265414298127117 0.3442875281189202 0.46265414298127117
1.1919792714522783E8 0.3508578356236622 0.4648405984334259 0.6491421643763378 -0.4648405984334259 0.6491421643763378 -0.4648405984334259 0.3508578356236622 0.4648405984334259
1.2099679118665792E8 0.35749036551534785 0.4669449900411009 0.6425096344846521 -0.4669449900411009 0.6425096344846521 -0.4669449900411009 0.35749036551534785 0.4669449900411009
1.2282280261157903E8 0.3641830942150121 0.4689652019771025 0.635816905784988 -0.46896520197710256 0.635816905784988 -0.46896520197710256 0.3641830942150121 0.4689652019771025
1.2467637111211549E8 0.3709339083160785 0.47089917562733197 0.6290660916839215 -0.47089917562733197 0.6290660916839215 -0.47089917562733197 0.3709339083160785 0.47089917562733197
1.265579125632208E8 0.37774060652417935 0.4727449140851613 0.6222593934758206 -0.4727449140851612 0.6222593934758206 -0.4727449140851612 0.37774060652417935 0.4727449140851613
1.284678491159853E8 0.3846009018573607 0.47450048658015415 0.6153990981426395 -0.47450048658015415 0.6153990981426395 -0.47450048658015415 0.3846009018573607 0.47450048658015415
1.3040660929235186E8 0.3915124241050029 0.47616403282411435 0.608487575894997 -0.47616403282411435 0.608487575894997 -0.47616403282411435 0.3915124241050029 0.47616403282411435
1.3237462808126101E8 0.3984727225425585 0.47773376725738864 0.6015272774574415 -0.47773376725738864 0.6015272774574415 -0.47773376725738864 0.3984727225425585 0.47773376725738864
1.3437234703624701E8 0.40547926889793784 0.4792079831783936 0.5945207311020623 -0.47920798317839347 0.5945207311020623 -0.47920798317839347 0.40547926889793784 0.4792079831783936
1.364002143745067E8 0.41252946056412476 0.48058505673948543 0.5874705394358751 -0.48058505673948543 0.5874705394358751 -0.48058505673948543 0.41252946056412476 0.48058505673948543
1.3845868507746372E8 0.41962062405132533 0.48186345079253884 0.5803793759486747 -0.48186345079253873 0.5803793759486747 -0.48186345079253873 0.41962062405132533 0.48186345079253884
1.405482209928499E8 0.42675001867069806 0.48304171856795186 0.5732499813293017 -0.48304171856795186 0.5732499813293017 -0.48304171856795186 0.42675001867069806 0.48304171856795186
1.426692909383278E8 0.4339148404404861 0.4841185071712637 0.5660851595595139 -0.4841185071712637 0.5660851595595139 -0.4841185071712637 0.4339148404404861 0.4841185071712637
1.4482237080667645E8 0.4411122262041426 0.4850925608821205 0.5588877737958574 -0.4850925608821205 0.5588877737958574 -0.4850925608821205 0.4411122262041426 0.4850925608821205
1.4700794367256513E8 0.4483392579488906 0.48596272424100584 0.5516607420511094 -0.48596272424100584 0.5516607420511094 -0.48596272424100584 0.4483392579488906 0.48596272424100584
1.492264999009378E8 0.45559296731201343 0.4867279449099037 0.5444070326879866 -0.4867279449099038 0.5444070326879866 -0.4867279449099038 0.45559296731201343 0.4867279449099037
1.5147853725703382E8 0.4628703402611179 0.48738727629393397 0.537129659738882 -0.48738727629393386 0.537129659738882 -0.48738727629393386 0.4628703402611179 0.48738727629393397
1.5376456101806876E8 0.470168321933601 0.4879398799119459 0.529831678066399 -0.4879398799119459 0.529831678066399 -0.4879398799119459 0.470168321933601 0.4879398799119459
1.5608508408660066E8 0.4774838216196235 0.48838502750509755 0.5225161783803766 -0.48838502750509755 0.5225161783803766 -0.48838502750509755 0.4774838216196235 0.48838502750509755
1.5844062710560706E8 0.4848137178720493 0.48872210287356505 0.5151862821279508 -0.48872210287356505 0.5151862821279508 -0.48872210287356505 0.4848137178720493 0.48872210287356505
1.6083171857529896E8 0.4921548637260501 0.48895060343271685 0.5078451362739499 -0.48895060343271685 0.5078451362739499 -0.48895060343271685 0.4921548637260501 0.48895060343271685
1.632588949716973E8 0.49950409201041 0.48907014148134287 0.50049590798959 -0.48907014148134287 0.50049590798959 -0.48907014148134287 0.49950409201041 0.48907014148134287
1.6572270086699936E8 0.5068582207320151 0.4890804451758378 0.49314177926798475 -0.4890804451758378 0.49314177926798475 -0.4890804451758378 0.5068582207320151 0.4890804451758378
1.6822368905176118E8 0.5142140585145488 0.4889813592055961 0.48578594148545123 -0.4889813592055961 0.48578594148545123 -0.4889813592055961 0.5142140585145488 0.4889813592055961
1.7076242065892437E8 0.5215684100720841 0.4887728451662672 0.47843158992791596 -0.4887728451662672 0.47843158992791596 -0.4887728451662672 0.5215684100720841 0.4887728451662672
1.7333946528971428E8 0.5289180816980344 0.4884549816289448 0.4710819183019655 -0.4884549816289448 0.4710819183019655 -0.4884549816289448 0.5289180816980344 0.4884549816289448
1.7595540114143828E8 0.5362598867498153 0.4880279639047929 0.4637401132501847 -0.4880279639047929 0.4637401132501847 -0.4880279639047929 0.5362598867498153 0.4880279639047929
1.786108151372127E8 0.5435906511095775 0.48749210350605954 0.4564093488904225 -0.48749210350605954 0.4564093488904225 -0.48749210350605954 0.5435906511095775 0.48749210350605954
1.8130630305764765E8 0.5509072186015114 0.4868478273058621 0.44909278139848857 -0.4868478273058622 0.44909278139848857 -0.4868478273058622 0.5509072186015114 0.4868478273058621
1.840424696745189E8 0.5582064563464499 0.48609567640054957 0.4417935436535499 -0.4860956764005496 0.4417935436535499 -0.4860956764005496 0.5582064563464499 0.48609567640054957
1.8681992888645732E8 0.5654852600348746 0.4852363046798394 0.4345147399651253 -0.4852363046798394 0.4345147399651253 -0.4852363046798394 0.5654852600348746 0.4852363046798394
1.8963930385668582E8 0.5727405590998955 0.4842704771112861 0.42725944090010454 -0.4842704771112861 0.42725944090010454 -0.4842704771112861 0.5727405590998955 0.4842704771112861
1.92501227152835E8 0.5799693217723538 0.48319906774694615 0.4200306782276463 -0.4831990677469462 0.4200306782276463 -0.4831990677469462 0.5799693217723538 0.48319906774694615
1.9540634088886917E8 0.5871685600008939 0.48202305746135826 0.41283143999910604 -0.4820230574613582 0.41283143999910604 -0.4820230574613582 0.5871685600008939 0.48202305746135826
1.983552968691535E8 0.5943353342206137 0.48074353143114734 0.4056646657793864 -0.4807435314311474 0.4056646657793864 -0.4807435314311474 0.5943353342206137 0.48074353143114734
2.0134875673469606E8 0.6014667579547965 0.4793616763676738 0.39853324204520346 -0.4793616763676738 0.39853324204520346 -0.4793616763676738 0.6014667579547965 0.4793616763676738
2.0438739211159652E8 0.60856000223517 0.4778787775151851 0.39143999776483 -0.4778787775151851 0.39143999776483 -0.4778787775151851 0.60856000223517 0.4778787775151851
2.074718847617352E8 0.6156122998271691 0.47629621542787276 0.38438770017283097 -0.47629621542787276 0.38438770017283097 -0.47629621542787276 0.6156122998271691 0.47629621542787276
2.106029267357361E8 0.6226209492477881 0.47461546254008957 0.37737905075221195 -0.4746154625400896 0.37737905075221195 -0.4746154625400896 0.6226209492477881 0.47461546254008957
2.1378122052823865E8 0.6295833185647471 0.4728380795447396 0.3704166814352528 -0.47283807954473955 0.3704166814352528 -0.47283807954473955 0.6295833185647471 0.4728380795447396
2.1700747923551247E8 0.6364968489669139 0.4709657115955016 0.36350315103308595 -0.47096571159550166 0.36350315103308595 -0.47096571159550166 0.6364968489669139 0.4709657115955016
2.2028242671545094E8 0.6433590580971494 0.46900008434909957 0.35664094190285056 -0.46900008434909957 0.35664094190285056 -0.46900008434909957 0.6433590580971494 0.46900008434909957
2.23606797749979E8 0.6501675431400258 0.46694299986426835 0.34983245685997405 -0.4669429998642684 0.34983245685997405 -0.4669429998642684 0.6501675431400258 0.46694299986426835
2.2698133820991236E8 0.6569199836581424 0.464796332374402 0.3430800163418575 -0.464796332374402 0.3430800163418575 -0.464796332374402 0.6569199836581424 0.464796332374402
2.3040680522230446E8 0.6636141441720647 0.46256202395109014 0.3363858558279353 -0.46256202395109014 0.3363858558279353 -0.46256202395109014 0.6636141441720647 0.46256202395109014
2.338839673403185E8 0.6702478764802001 0.4602420800758727 0.3297521235197999 -0.4602420800758727 0.3297521235197999 -0.4602420800758727 0.6702478764802001 0.4602420800758727
2.37413604715664E8 0.6768191217162116 0.45783856513755067 0.3231808782837885 -0.45783856513755067 0.3231808782837885 -0.45783856513755067 0.6768191217162116 0.45783856513755067
2.4099650927363476E8 0.6833259121428268 0.4553535978723067 0.31667408785717316 -0.4553535978723067 0.31667408785717316 -0.4553535978723067 0.6833259121428268 0.4553535978723067
2.446334848907889E8 0.6897663726821386 0.45278934676369853 0.3102336273178615 -0.4527893467636986 0.3102336273178615 -0.4527893467636986 0.6897663726821386 0.45278934676369853
2.4832534757531032E8 0.6961387221836817 0.4501480254193108 0.30386127781631844 -0.4501480254193108 0.30386127781631844 -0.4501480254193108 0.6961387221836817 0.4501480254193108
2.5207292565009177E8 0.7024412744327369 0.4474318879404777 0.29755872556726315 -0.4474318879404777 0.29755872556726315 -0.4474318879404777 0.7024412744327369 0.4474318879404777
2.558770599385812E8 0.7086724389024013 0.44464322430103836 0.29132756109759883 -0.4446432243010384 0.29132756109759883 -0.4446432243010384 0.7086724389024013 0.44464322430103836
