!Murata Part Number: LQW18CNR47J00
!These Parameters are Measured in Series Mode Connection
!       o--[Z]--o
!Port1              Port2
!       o-------o
!
!Freq. Start=10[MHz] Stop=20[GHz], 401[Steps]
# Hz S RI R 50
!Freq.(Hz) S11(Real) S11(Imag) S21(Real) S21(Imag) S12(Real) S12(Imag) S22(Real) S22(Imag)
1.0E7 0.10134385019879484 0.2567224405634066 0.8986561498012051 -0.2567224405634066 0.8986561498012051 -0.2567224405634066 0.10134385019879484 0.2567224405634066
1.0191839480455115E7 0.10411878813838286 0.26074729765411414 0.8958812118616172 -0.26074729765411414 0.8958812118616172 -0.26074729765411414 0.10411878813838286 0.26074729765411414
1.0387359199536363E7 0.10698008929077582 0.2648038533931818 0.8930199107092243 -0.2648038533931818 0.8930199107092243 -0.2648038533931818 0.10698008929077582 0.2648038533931818
1.0586629758750336E7 0.10992970298379286 0.2688906745161631 0.8900702970162071 -0.2688906745161631 0.8900702970162071 -0.2688906745161631 0.10992970298379286 0.2688906745161631
1.0789723114019271E7 0.11296957159902646 0.2730062311364659 0.8870304284009735 -0.2730062311364659 0.8870304284009735 -0.2730062311364659 0.11296957159902646 0.2730062311364659
1.0996712601664074E7 0.1161016264376476 0.2771488944745352 0.8838983735623525 -0.2771488944745352 0.8838983735623525 -0.2771488944745352 0.1161016264376476 0.2771488944745352
1.1207672964885822E7 0.11932778334657482 0.28131693472817376 0.8806722166534251 -0.2813169347281738 0.8806722166534251 -0.2813169347281738 0.11932778334657482 0.28131693472817376
1.1422680380755277E7 0.12264993810516019 0.2855085191034432 0.8773500618948399 -0.2855085191034432 0.8773500618948399 -0.2855085191034432 0.12264993810516019 0.2855085191034432
1.1641812487720173E7 0.12606996157391767 0.2897217100263418 0.8739300384260823 -0.2897217100263418 0.8739300384260823 -0.2897217100263418 0.12606996157391767 0.2897217100263418
1.1865148413640184E7 0.12958969460831712 0.2939544635561311 0.8704103053916828 -0.2939544635561311 0.8704103053916828 -0.2939544635561311 0.12958969460831712 0.2939544635561311
1.2092768804359745E7 0.13321094274228043 0.2982046280217622 0.8667890572577195 -0.2982046280217622 0.8667890572577195 -0.2982046280217622 0.13321094274228043 0.2982046280217622
1.2324755852828966E7 0.13693547064775105 0.30246994290332685 0.8630645293522489 -0.30246994290332685 0.8630645293522489 -0.30246994290332685 0.13693547064775105 0.30246994290332685
1.2561193328783253E7 0.14076499637854978 0.30674803798080724 0.8592350036214501 -0.30674803798080724 0.8592350036214501 -0.30674803798080724 0.14076499637854978 0.30674803798080724
1.280216660899226E7 0.14470118540867904 0.3110364327726016 0.8552988145913211 -0.31103643277260157 0.8552988145913211 -0.31103643277260157 0.14470118540867904 0.3110364327726016
1.3047762708089152E7 0.14874564447728467 0.31533253628635594 0.8512543555227153 -0.31533253628635594 0.8512543555227153 -0.31533253628635594 0.14874564447728467 0.31533253628635594
1.3298070309991302E7 0.15289991525461363 0.3196336471045053 0.8471000847453863 -0.3196336471045053 0.8471000847453863 -0.3196336471045053 0.15289991525461363 0.3196336471045053
1.3553179799923737E7 0.157165467845511 0.3239369538266138 0.8428345321544891 -0.3239369538266138 0.8428345321544891 -0.3239369538266138 0.157165467845511 0.3239369538266138
1.3813183297056952E7 0.16154369414925793 0.32823953589008426 0.8384563058507422 -0.3282395358900843 0.8384563058507422 -0.3282395358900843 0.16154369414925793 0.32823953589008426
1.4078174687770821E7 0.1660359010968532 0.3325383647900697 0.8339640989031467 -0.3325383647900697 0.8339640989031467 -0.3325383647900697 0.1660359010968532 0.3325383647900697
1.4348249659556655E7 0.17064330378915973 0.33683030571844974 0.8293566962108403 -0.33683030571844974 0.8293566962108403 -0.33683030571844974 0.17064330378915973 0.33683030571844974
1.4623505735569622E7 0.17536701856164608 0.3411121196405176 0.8246329814383537 -0.3411121196405176 0.8246329814383537 -0.3411121196405176 0.17536701856164608 0.3411121196405176
1.490404230984403E7 0.18020805600374418 0.3453804658265649 0.8197919439962558 -0.3453804658265649 0.8197919439962558 -0.3453804658265649 0.18020805600374418 0.3453804658265649
1.5189960683184188E7 0.18516731396306874 0.34963190485381873 0.8148326860369314 -0.34963190485381873 0.8148326860369314 -0.34963190485381873 0.18516731396306874 0.34963190485381873
1.548136409974376E7 0.19024557056688673 0.3538629020922048 0.8097544294331134 -0.3538629020922048 0.8097544294331134 -0.3538629020922048 0.19024557056688673 0.3538629020922048
1.5778357784306893E7 0.19544347729525835 0.3580698316851569 0.8045565227047418 -0.3580698316851569 0.8045565227047418 -0.3580698316851569 0.19544347729525835 0.3580698316851569
1.608104898028453E7 0.2007615521421446 0.3622489810341833 0.7992384478578554 -0.3622489810341833 0.7992384478578554 -0.3622489810341833 0.2007615521421446 0.3622489810341833
1.638954698843964E7 0.206200172902482 0.3663965557931355 0.793799827097518 -0.3663965557931355 0.793799827097518 -0.3663965557931355 0.206200172902482 0.3663965557931355
1.6703963206355339E7 0.21175957062471407 0.37050868537512244 0.7882404293752859 -0.3705086853751223 0.7882404293752859 -0.3705086853751223 0.21175957062471407 0.37050868537512244
1.7024411168660197E7 0.21743982326950356 0.37458142897177227 0.7825601767304964 -0.3745814289717723 0.7825601767304964 -0.3745814289717723 0.21743982326950356 0.37458142897177227
1.7351006588025205E7 0.22324084961632462 0.3786107820811139 0.7767591503836754 -0.37861078208111376 0.7767591503836754 -0.37861078208111376 0.22324084961632462 0.3786107820811139
1.768386739694721E7 0.22916240346028025 0.382592683536715 0.7708375965397197 -0.382592683536715 0.7708375965397197 -0.382592683536715 0.22916240346028025 0.382592683536715
1.8023113790333964E7 0.23520406814181463 0.38652302302694785 0.7647959318581854 -0.3865230230269479 0.7647959318581854 -0.3865230230269479 0.23520406814181463 0.38652302302694785
1.836886826890608E7 0.24136525145194132 0.3903976490893455 0.7586347485480587 -0.3903976490893455 0.7586347485480587 -0.3903976490893455 0.24136525145194132 0.3903976490893455
1.872125568343162E7 0.24764518095518057 0.3942123775610384 0.7523548190448194 -0.39421237756103844 0.7523548190448194 -0.39421237756103844 0.24764518095518057 0.3942123775610384
1.9080403279809315E7 0.2540428997715635 0.3979630004622349 0.7459571002284365 -0.39796300046223493 0.7459571002284365 -0.39796300046223493 0.2540428997715635 0.3979630004622349
1.9446440745016586E7 0.2605572628578046 0.40164529528568865 0.7394427371421954 -0.40164529528568865 0.7394427371421954 -0.40164529528568865 0.2605572628578046 0.40164529528568865
1.9819500253939107E7 0.2671869338260703 0.4052550346611299 0.7328130661739297 -0.4052550346611299 0.7328130661739297 -0.4052550346611299 0.2671869338260703 0.4052550346611299
2.0199716517098684E7 0.27393038233665795 0.40878799635976587 0.7260696176633421 -0.40878799635976587 0.7260696176633421 -0.40878799635976587 0.27393038233665795 0.40878799635976587
2.0587226829296768E7 0.28078588209837024 0.41223997360023956 0.7192141179016298 -0.4122399736002396 0.7192141179016298 -0.4122399736002396 0.28078588209837024 0.41223997360023956
2.0982171119191162E7 0.2877515095074213 0.41560678561392067 0.7122484904925788 -0.41560678561392067 0.7122484904925788 -0.41560678561392067 0.2877515095074213 0.41560678561392067
2.138469199982376E7 0.29482514295236234 0.4188842884241395 0.7051748570476376 -0.4188842884241395 0.7051748570476376 -0.4188842884241395 0.29482514295236234 0.4188842884241395
2.1794934820117645E7 0.3020044628088051 0.4220683857910197 0.6979955371911949 -0.4220683857910197 0.6979955371911949 -0.4220683857910197 0.3020044628088051 0.4220683857910197
2.22130477173621E7 0.3092869521436536 0.42515504027095297 0.6907130478563464 -0.42515504027095297 0.6907130478563464 -0.42515504027095297 0.3092869521436536 0.42515504027095297
2.263918167070445E7 0.31666989814419605 0.42814028433754864 0.683330101855804 -0.42814028433754864 0.683330101855804 -0.42814028433754864 0.31666989814419605 0.42814028433754864
2.307349055566814E7 0.3241503942827833 0.4310202315091047 0.6758496057172166 -0.43102023150910473 0.6758496057172166 -0.43102023150910473 0.3241503942827833 0.4310202315091047
2.3516131199716687E7 0.3317253432229882 0.43379108742633476 0.6682746567770119 -0.4337910874263348 0.6682746567770119 -0.4337910874263348 0.3317253432229882 0.43379108742633476
2.396726343888349E7 0.3393914604681408 0.4364491608232562 0.6606085395318592 -0.43644916082325613 0.6606085395318592 -0.43644916082325613 0.3393914604681408 0.4364491608232562
2.4427050175488118E7 0.34714527874805434 0.4389908743338407 0.6528547212519457 -0.4389908743338407 0.6528547212519457 -0.4389908743338407 0.34714527874805434 0.4389908743338407
2.4895657436959792E7 0.35498315313461964 0.44141277507723786 0.6450168468653804 -0.4414127750772378 0.6450168468653804 -0.4414127750772378 0.35498315313461964 0.44141277507723786
2.5373254435789287E7 0.3629012668718407 0.4437115449651259 0.6370987331281591 -0.4437115449651259 0.6370987331281591 -0.4437115449651259 0.3629012668718407 0.4437115449651259
2.586001363063102E7 0.37089563790087277 0.44588401067601646 0.6291043620991272 -0.44588401067601646 0.6291043620991272 -0.44588401067601646 0.37089563790087277 0.44588401067601646
2.635611078857727E7 0.3789621260557432 0.4479271532431119 0.6210378739442568 -0.44792715324311183 0.6210378739442568 -0.44792715324311183 0.3789621260557432 0.4479271532431119
2.6861725048627086E7 0.38709644090078665 0.44983811720459205 0.6129035590992132 -0.449838117204592 0.6129035590992132 -0.449838117204592 0.38709644090078665 0.44983811720459205
2.737703898637277E7 0.39529415017641617 0.45161421926793227 0.6047058498235838 -0.4516142192679323 0.6047058498235838 -0.4516142192679323 0.39529415017641617 0.45161421926793227
2.7902238679927293E7 0.4035506888157828 0.45325295644301555 0.5964493111842173 -0.45325295644301555 0.5964493111842173 -0.45325295644301555 0.4035506888157828 0.45325295644301555
2.843751377711649E7 0.4118613684911526 0.45475201360233525 0.5881386315088474 -0.45475201360233536 0.5881386315088474 -0.45475201360233536 0.4118613684911526 0.45475201360233525
2.898305756396021E7 0.4202213876455182 0.45610927043046295 0.5797786123544818 -0.45610927043046295 0.5797786123544818 -0.45610927043046295 0.4202213876455182 0.45610927043046295
2.95390670344673E7 0.4286258419620772 0.45732280772909695 0.5713741580379227 -0.45732280772909695 0.5713741580379227 -0.45732280772909695 0.4286258419620772 0.45732280772909695
3.0105742961769406E7 0.43706973522179254 0.458390913048393 0.5629302647782075 -0.458390913048393 0.5629302647782075 -0.458390913048393 0.43706973522179254 0.458390913048393
3.068328997061952E7 0.4455479904973018 0.45931208561980724 0.5544520095026984 -0.45931208561980713 0.5544520095026984 -0.45931208561980713 0.4455479904973018 0.45931208561980724
3.1271916611281253E7 0.4540554616299717 0.4600850405703327 0.5459445383700283 -0.4600850405703327 0.5459445383700283 -0.4600850405703327 0.4540554616299717 0.4600850405703327
3.187183543483565E7 0.4625869449359211 0.46070871240270156 0.5374130550640788 -0.46070871240270156 0.5374130550640788 -0.46070871240270156 0.4625869449359211 0.46070871240270156
3.2483263069932636E7 0.47113719108631363 0.4611822577308013 0.5288628089136864 -0.4611822577308013 0.5288628089136864 -0.4611822577308013 0.47113719108631363 0.4611822577308013
3.310642030101491E7 0.4797009171071735 0.4615050572641801 0.5202990828928264 -0.4615050572641801 0.5202990828928264 -0.4615050572641801 0.4797009171071735 0.4615050572641801
3.3741532148042455E7 0.4882728184443577 0.46167671704001656 0.5117271815556423 -0.46167671704001656 0.5117271815556423 -0.46167671704001656 0.4882728184443577 0.46167671704001656
3.438882794774647E7 0.4968475810400957 0.4616970689052797 0.5031524189599044 -0.4616970689052798 0.5031524189599044 -0.4616970689052798 0.4968475810400957 0.4616970689052797
3.504854143644208E7 0.5054198933686704 0.4615661702559602 0.4945801066313297 -0.4615661702559603 0.4945801066313297 -0.4615661702559603 0.5054198933686704 0.4615661702559602
3.572091083442975E7 0.5139844583803032 0.4612843030441807 0.486015541619697 -0.4612843030441808 0.486015541619697 -0.4612843030441808 0.5139844583803032 0.4612843030441807
3.640617893201581E7 0.5225360053040856 0.4608519720676664 0.47746399469591433 -0.4608519720676663 0.47746399469591433 -0.4608519720676663 0.5225360053040856 0.4608519720676664
3.7104593177183196E7 0.5310693012628502 0.46026990255946115 0.4689306987371498 -0.46026990255946115 0.4689306987371498 -0.46026990255946115 0.5310693012628502 0.46026990255946115
3.781640576494413E7 0.5395791626551167 0.45953903709889393 0.46042083734488326 -0.4595390370988939 0.46042083734488326 -0.4595390370988939 0.5395791626551167 0.45953903709889393
3.85418737284068E7 0.5480604662616853 0.45866053186763023 0.4519395337383147 -0.4586605318676301 0.4519395337383147 -0.4586605318676301 0.5480604662616853 0.45866053186763023
3.928125903158923E7 0.5565081600370044 0.457635752277185 0.4434918399629955 -0.457635752277185 0.4434918399629955 -0.457635752277185 0.5565081600370044 0.457635752277185
4.003482866401353E7 0.5649172735481118 0.4564662679965279 0.4350827264518883 -0.45646626799652795 0.4350827264518883 -0.45646626799652795 0.5649172735481118 0.4564662679965279
4.080285473711493E7 0.5732829280266717 0.4551538474103921 0.4267170719733283 -0.455153847410392 0.4267170719733283 -0.455153847410392 0.5732829280266717 0.4551538474103921
4.158561458250031E7 0.5816003460024104 0.4537004515406172 0.4183996539975896 -0.4537004515406172 0.4183996539975896 -0.4537004515406172 0.5816003460024104 0.4537004515406172
4.2383390852091655E7 0.589864860489041 0.4521082274643208 0.4101351395109592 -0.4521082274643209 0.4101351395109592 -0.4521082274643209 0.589864860489041 0.4521082274643208
4.319647162019081E7 0.5980719236965525 0.4503795012639327 0.4019280763034475 -0.4503795012639327 0.4019280763034475 -0.4503795012639327 0.5980719236965525 0.4503795012639327
4.402515048750197E7 0.6062171152465126 0.4485167705451474 0.3937828847534876 -0.4485167705451474 0.3937828847534876 -0.4485167705451474 0.6062171152465126 0.4485167705451474
4.486972668715004E7 0.6142961498697703 0.4465226965596717 0.3857038501302297 -0.44652269655967175 0.3857038501302297 -0.44652269655967175 0.6142961498697703 0.4465226965596717
4.573050519273264E7 0.6223048845686552 0.4444000959702902 0.3776951154313448 -0.4444000959702902 0.3776951154313448 -0.4444000959702902 0.6223048845686552 0.4444000959702902
4.6607796828445025E7 0.6302393252284196 0.4421519322962419 0.3697606747715803 -0.4421519322962419 0.3697606747715803 -0.4421519322962419 0.6302393252284196 0.4421519322962419
4.750191838131767E7 0.6380956326653053 0.4397813070772274 0.3619043673346946 -0.43978130707722735 0.3619043673346946 -0.43978130707722735 0.6380956326653053 0.4397813070772274
4.8413192715607E7 0.6458701281011765 0.43729145079454035 0.3541298718988236 -0.43729145079454035 0.3541298718988236 -0.43729145079454035 0.6458701281011765 0.43729145079454035
4.934194888938056E7 0.6535592980572021 0.4346857135878597 0.34644070194279786 -0.43468571358785973 0.34644070194279786 -0.43468571358785973 0.6535592980572021 0.4346857135878597
5.0288522273338735E7 0.6611597986615594 0.43196755580615426 0.33884020133844067 -0.4319675558061543 0.33884020133844067 -0.4319675558061543 0.6611597986615594 0.43196755580615426
5.125325467191602E7 0.6686684593685748 0.42914053843093486 0.3313315406314253 -0.4291405384309349 0.3313315406314253 -0.4291405384309349 0.6686684593685748 0.42914053843093486
5.223649444670544E7 0.6760822860891411 0.4262083134097565 0.323917713910859 -0.42620831340975646 0.323917713910859 -0.42620831340975646 0.6760822860891411 0.4262083134097565
5.32385966422507E7 0.6833984637346128 0.4231746139374044 0.31660153626538734 -0.4231746139374044 0.31660153626538734 -0.4231746139374044 0.6833984637346128 0.4231746139374044
5.425992311425159E7 0.6906143581787165 0.4200432447216169 0.3093856418212834 -0.4200432447216169 0.3093856418212834 -0.4200432447216169 0.6906143581787165 0.4200432447216169
5.530084266022885E7 0.6977275176443041 0.4168180722694732 0.30227248235569604 -0.41681807226947326 0.30227248235569604 -0.41681807226947326 0.6977275176443041 0.4168180722694732
5.63617311526957E7 0.704735673524005 0.41350301522973 0.295264326475995 -0.41350301522973 0.295264326475995 -0.41350301522973 0.704735673524005 0.41350301522973
5.744297167488412E7 0.7116367406460301 0.4101020348254082 0.28836325935397 -0.41010203482540825 0.28836325935397 -0.41010203482540825 0.7116367406460301 0.4101020348254082
5.8544954659074895E7 0.7184288169984815 0.40661912540980627 0.2815711830015186 -0.40661912540980627 0.2815711830015186 -0.40661912540980627 0.7184288169984815 0.40661912540980627
5.9668078027581416E7 0.7251101829275757 0.4030583051778688 0.2748898170724242 -0.40305830517786867 0.2748898170724242 -0.40305830517786867 0.7251101829275757 0.4030583051778688
6.0812747336438075E7 0.7316792998271363 0.39942360706343716 0.2683207001728637 -0.39942360706343716 0.2683207001728637 -0.39942360706343716 0.7316792998271363 0.39942360706343716
6.197937592184514E7 0.7381348083385689 0.3957190698513903 0.26186519166143113 -0.3957190698513903 0.26186519166143113 -0.3957190698513903 0.7381348083385689 0.3957190698513903
6.3168385049423054E7 0.7444755260822724 0.3919487295320217 0.2555244739177276 -0.39194872953202176 0.2555244739177276 -0.39194872953202176 0.7444755260822724 0.3919487295320217
6.438020406633007E7 0.7507004449430604 0.3881166109232184 0.2492995550569397 -0.3881166109232185 0.2492995550569397 -0.3881166109232185 0.7507004449430604 0.3881166109232184
6.561527055629799E7 0.7568087279336321 0.3842267195841201 0.243191272066368 -0.38422671958412014 0.243191272066368 -0.38422671958412014 0.7568087279336321 0.3842267195841201
6.6874030497642204E7 0.7627997056614735 0.38028303404192537 0.23720029433852646 -0.3802830340419254 0.23720029433852646 -0.3802830340419254 0.7627997056614735 0.38028303404192537
6.815693842430294E7 0.7686728724257106 0.3762894983514358 0.23132712757428947 -0.3762894983514358 0.23132712757428947 -0.3762894983514358 0.7686728724257106 0.3762894983514358
6.946445758997591E7 0.774427881971438 0.37225001500475147 0.22557211802856197 -0.37225001500475147 0.22557211802856197 -0.37225001500475147 0.774427881971438 0.37225001500475147
7.079706013539167E7 0.7800645429298481 0.3681684382063118 0.21993545707015189 -0.3681684382063118 0.21993545707015189 -0.3681684382063118 0.7800645429298481 0.3681684382063118
7.215522725880398E7 0.7855828139730967 0.3640485675262036 0.21441718602690324 -0.3640485675262036 0.21441718602690324 -0.3640485675262036 0.7855828139730967 0.3640485675262036
7.353944938974898E7 0.7909827987132787 0.3598941419423635 0.20901720128672133 -0.3598941419423635 0.20901720128672133 -0.3598941419423635 0.7909827987132787 0.3598941419423635
7.495022636613746E7 0.7962647403751049 0.35570883428000866 0.20373525962489525 -0.35570883428000866 0.20373525962489525 -0.35570883428000866 0.7962647403751049 0.35570883428000866
7.638806761474478E7 0.8014290162719252 0.3514962460543352 0.19857098372807488 -0.3514962460543352 0.19857098372807488 -0.3514962460543352 0.8014290162719252 0.3514962460543352
7.785349233516307E7 0.8064761321145789 0.3472599027202822 0.1935238678854211 -0.3472599027202822 0.1935238678854211 -0.3472599027202822 0.8064761321145789 0.3472599027202822
7.934702968728249E7 0.811406716182226 0.34300324933094795 0.1885932838177739 -0.3430032493309479 0.1885932838177739 -0.3430032493309479 0.811406716182226 0.34300324933094795
8.0869218982369E7 0.8162215133837976 0.3387296466041228 0.1837784866162025 -0.3387296466041228 0.1837784866162025 -0.3387296466041228 0.8162215133837976 0.3387296466041228
